!File created by NanoVNA-F V2
# Hz S RI R 50
     50000  0.000415 -0.002002  0.099956 -0.002213 0 0 0 0
   5549750 -0.011886  0.042774  0.181388 -0.031961 0 0 0 0
  11049500 -0.005113 -0.003465  0.121117 -0.005208 0 0 0 0
  16549250  0.003957  0.002411  0.097680 -0.004386 0 0 0 0
  22049000  0.005687  0.001059  0.097864 -0.005731 0 0 0 0
  27548750  0.006367  0.001911  0.097935 -0.006185 0 0 0 0
  33048500  0.006344  0.000760  0.097828 -0.006995 0 0 0 0
  38548250  0.006707  0.001315  0.098003 -0.007771 0 0 0 0
  44048000  0.006172  0.001227  0.097188 -0.008648 0 0 0 0
  49547750  0.005475  0.000347  0.097376 -0.009625 0 0 0 0
  55047500  0.006270  0.000500  0.097439 -0.010989 0 0 0 0
  60547250  0.006677  0.000051  0.096360 -0.011795 0 0 0 0
  66047000  0.006425  0.000459  0.097085 -0.013025 0 0 0 0
  71546750  0.005221  0.000762  0.096345 -0.013616 0 0 0 0
  77046500  0.005363  0.001251  0.095838 -0.014778 0 0 0 0
  82546250  0.003896  0.000712  0.096038 -0.015567 0 0 0 0
  88046000  0.003518  0.000996  0.095759 -0.016528 0 0 0 0
  93545750  0.003662  0.002323  0.095586 -0.017444 0 0 0 0
  99045500  0.003427  0.002327  0.095925 -0.018315 0 0 0 0
 104545250  0.003441  0.001916  0.094665 -0.019194 0 0 0 0
 110045000  0.004194  0.002018  0.095394 -0.020128 0 0 0 0
 115544750  0.005538  0.004234  0.095327 -0.021032 0 0 0 0
 121044500  0.006060  0.003100  0.094651 -0.021745 0 0 0 0
 126544250  0.005117  0.003594  0.095484 -0.023434 0 0 0 0
 132044000  0.005535  0.002613  0.096305 -0.024531 0 0 0 0
 137543750  0.008617  0.003591  0.099734 -0.026816 0 0 0 0
 143043500  0.008578  0.003133  0.099872 -0.027865 0 0 0 0
 148543250  0.009462  0.002394  0.099109 -0.028812 0 0 0 0
 154043000  0.010545  0.001581  0.099172 -0.030157 0 0 0 0
 159542750  0.011028  0.001077  0.099131 -0.030737 0 0 0 0
 165042500  0.011865 -0.000265  0.097790 -0.031758 0 0 0 0
 170542250  0.012518 -0.001001  0.098283 -0.032863 0 0 0 0
 176042000  0.012813 -0.002287  0.097562 -0.033711 0 0 0 0
 181541750  0.012588 -0.003466  0.096647 -0.034725 0 0 0 0
 187041500  0.012564 -0.005382  0.096767 -0.035597 0 0 0 0
 192541250  0.012256 -0.006867  0.096007 -0.036417 0 0 0 0
 198041000  0.011975 -0.008210  0.095601 -0.037411 0 0 0 0
 203540750  0.010977 -0.009208  0.095558 -0.038255 0 0 0 0
 209040500  0.009500 -0.010723  0.094255 -0.038914 0 0 0 0
 214540250  0.008742 -0.011300  0.094471 -0.039869 0 0 0 0
 220040000  0.007155 -0.013264  0.093990 -0.040636 0 0 0 0
 225539750  0.005711 -0.015474  0.092735 -0.041456 0 0 0 0
 231039500  0.004150 -0.016419  0.093166 -0.042467 0 0 0 0
 236539250  0.002508 -0.017361  0.092582 -0.042962 0 0 0 0
 242039000  0.000698 -0.017967  0.092001 -0.043669 0 0 0 0
 247538750 -0.002434 -0.018442  0.091914 -0.044793 0 0 0 0
 253038500 -0.004606 -0.018464  0.091077 -0.045456 0 0 0 0
 258538250 -0.007624 -0.018154  0.090810 -0.046483 0 0 0 0
 264038000 -0.010796 -0.018358  0.090605 -0.047525 0 0 0 0
 269537750 -0.013391 -0.015926  0.089179 -0.048012 0 0 0 0
 275037500 -0.016058 -0.015067  0.089326 -0.049132 0 0 0 0
 280537250 -0.019238 -0.012718  0.088823 -0.049984 0 0 0 0
 286037000 -0.021271 -0.011178  0.087657 -0.050651 0 0 0 0
 291536750 -0.023188 -0.007938  0.087866 -0.051804 0 0 0 0
 297036500 -0.024939 -0.005208  0.087054 -0.052664 0 0 0 0
 302536250 -0.026478 -0.002801  0.086347 -0.053531 0 0 0 0
 308036000 -0.028170  0.001425  0.086141 -0.054323 0 0 0 0
 313535750 -0.029504  0.005719  0.084992 -0.054844 0 0 0 0
 319035500 -0.028994  0.009294  0.084971 -0.055870 0 0 0 0
 324535250 -0.029302  0.013180  0.084411 -0.056445 0 0 0 0
 330035000 -0.028808  0.017002  0.083013 -0.056822 0 0 0 0
 335534750 -0.027295  0.020875  0.083533 -0.057851 0 0 0 0
 341034500 -0.026494  0.025743  0.082587 -0.058848 0 0 0 0
 346534250 -0.025374  0.029477  0.081765 -0.059354 0 0 0 0
 352034000 -0.022059  0.033073  0.081663 -0.060467 0 0 0 0
 357533750 -0.019258  0.035693  0.080570 -0.061044 0 0 0 0
 363033500 -0.016585  0.039362  0.080012 -0.061821 0 0 0 0
 368533250 -0.012191  0.041348  0.079754 -0.062833 0 0 0 0
 374033000 -0.008864  0.043886  0.078237 -0.063452 0 0 0 0
 379532750 -0.003954  0.046292  0.078065 -0.064655 0 0 0 0
 385032500  0.000801  0.046765  0.077663 -0.065372 0 0 0 0
 390532250  0.005273  0.048459  0.076473 -0.065619 0 0 0 0
 396032000  0.011253  0.047757  0.076205 -0.066689 0 0 0 0
 401531750  0.015511  0.047297  0.075234 -0.067145 0 0 0 0
 407031500  0.021129  0.046332  0.074323 -0.067697 0 0 0 0
 412531250  0.025939  0.044147  0.074043 -0.068773 0 0 0 0
 418031000  0.031301  0.041379  0.072805 -0.068765 0 0 0 0
 423530750  0.036025  0.038486  0.072680 -0.069580 0 0 0 0
 429030500  0.041278  0.034638  0.072285 -0.070087 0 0 0 0
 434530250  0.046138  0.029462  0.070941 -0.069873 0 0 0 0
 440030000  0.050003  0.024171  0.071133 -0.071132 0 0 0 0
 445529750  0.052672  0.019570  0.070464 -0.071501 0 0 0 0
 451029500  0.054900  0.012419  0.069223 -0.071633 0 0 0 0
 456529250  0.055540  0.005535  0.069723 -0.073011 0 0 0 0
 462029000  0.055988 -0.001811  0.068695 -0.073616 0 0 0 0
 467528750  0.055569 -0.007683  0.068150 -0.074474 0 0 0 0
 473028500  0.053565 -0.013589  0.067965 -0.075167 0 0 0 0
 478528250  0.052273 -0.019356  0.066893 -0.075481 0 0 0 0
 484028000  0.048903 -0.026400  0.066647 -0.076789 0 0 0 0
 489527750  0.045403 -0.032374  0.066033 -0.077886 0 0 0 0
 495027500  0.040063 -0.037876  0.064678 -0.077800 0 0 0 0
 500527250  0.035061 -0.042345  0.063965 -0.079403 0 0 0 0
 506027000  0.030145 -0.046353  0.063394 -0.080095 0 0 0 0
 511526750  0.022578 -0.050062  0.061662 -0.080587 0 0 0 0
 517026500  0.015780 -0.052893  0.061608 -0.081619 0 0 0 0
 522526250  0.008146 -0.055075  0.060538 -0.081593 0 0 0 0
 528026000  0.000537 -0.056642  0.059723 -0.082158 0 0 0 0
 533525750 -0.008011 -0.057026  0.059078 -0.083234 0 0 0 0
 539025500 -0.016203 -0.055542  0.057535 -0.083006 0 0 0 0
 544525250 -0.024576 -0.053808  0.056730 -0.084042 0 0 0 0
 550025000 -0.030388 -0.051455  0.056108 -0.084094 0 0 0 0
 555524750 -0.037788 -0.048290  0.054762 -0.084117 0 0 0 0
 561024500 -0.045426 -0.044059  0.054366 -0.085374 0 0 0 0
 566524250 -0.051707 -0.038333  0.053659 -0.085236 0 0 0 0
 572024000 -0.058562 -0.031833  0.052735 -0.085663 0 0 0 0
 577523750 -0.064124 -0.024314  0.052325 -0.086735 0 0 0 0
 583023500 -0.069467 -0.016421  0.051217 -0.086676 0 0 0 0
 588523250 -0.073326 -0.007935  0.050854 -0.087236 0 0 0 0
 594023000 -0.077154 -0.000068  0.050231 -0.087821 0 0 0 0
 599522750 -0.079227  0.007520  0.049094 -0.087737 0 0 0 0
 605022500 -0.080190  0.016322  0.048293 -0.088842 0 0 0 0
 610522250 -0.080099  0.025654  0.047082 -0.089142 0 0 0 0
 616022000 -0.079359  0.034389  0.046373 -0.089087 0 0 0 0
 621521750 -0.078569  0.042304  0.045745 -0.090243 0 0 0 0
 627021500 -0.075273  0.051270  0.044516 -0.090227 0 0 0 0
 632521250 -0.070876  0.059843  0.043996 -0.090567 0 0 0 0
 638021000 -0.065399  0.066889  0.043171 -0.091474 0 0 0 0
 643520750 -0.060399  0.074006  0.042121 -0.091329 0 0 0 0
 649020500 -0.053273  0.081580  0.041416 -0.092179 0 0 0 0
 654520250 -0.045152  0.087037  0.040755 -0.092309 0 0 0 0
 660020000 -0.036332  0.092277  0.039658 -0.091945 0 0 0 0
 665519750 -0.025564  0.097082  0.038898 -0.092790 0 0 0 0
 671019500 -0.016441  0.100952  0.037941 -0.092511 0 0 0 0
 676519250 -0.007964  0.102743  0.037477 -0.092843 0 0 0 0
 682019000  0.001965  0.102390  0.036894 -0.093633 0 0 0 0
 687518750  0.011751  0.102850  0.036603 -0.093731 0 0 0 0
 693018500  0.021994  0.101787  0.035418 -0.093687 0 0 0 0
 698518250  0.032918  0.098652  0.034443 -0.094806 0 0 0 0
 704018000  0.042305  0.094998  0.033383 -0.094449 0 0 0 0
 709517750  0.051612  0.091018  0.033188 -0.095660 0 0 0 0
 715017500  0.059367  0.083976  0.032030 -0.096402 0 0 0 0
 720517250  0.066365  0.077806  0.031572 -0.096054 0 0 0 0
 726017000  0.072038  0.070290  0.030562 -0.097210 0 0 0 0
 731516750  0.077744  0.061122  0.029564 -0.097577 0 0 0 0
 737016500  0.083298  0.052080  0.028600 -0.097764 0 0 0 0
 742516250  0.085388  0.042778  0.027099 -0.098792 0 0 0 0
 748016000  0.087015  0.034037  0.026195 -0.098792 0 0 0 0
 753515750  0.089571  0.023539  0.025119 -0.099309 0 0 0 0
 759015500  0.088878  0.014196  0.023997 -0.099896 0 0 0 0
 764515250  0.087757  0.004260  0.022703 -0.099084 0 0 0 0
 770015000  0.084269 -0.003694  0.021882 -0.100213 0 0 0 0
 775514750  0.080674 -0.013638  0.020922 -0.099957 0 0 0 0
 781014500  0.076650 -0.021106  0.019951 -0.099515 0 0 0 0
 786514250  0.071196 -0.029508  0.018682 -0.100404 0 0 0 0
 792014000  0.063453 -0.037497  0.017346 -0.100101 0 0 0 0
 797513750  0.055491 -0.043021  0.016244 -0.099802 0 0 0 0
 803013500  0.046210 -0.047116  0.015412 -0.100003 0 0 0 0
 808513250  0.037326 -0.051720  0.014633 -0.099644 0 0 0 0
 814013000  0.026724 -0.054234  0.013562 -0.100004 0 0 0 0
 819512750  0.017360 -0.056701  0.013102 -0.099738 0 0 0 0
 825012500  0.008557 -0.057241  0.012304 -0.098848 0 0 0 0
 830512250 -0.000988 -0.057432  0.012065 -0.099555 0 0 0 0
 836012000 -0.011553 -0.056280  0.011103 -0.099467 0 0 0 0
 841511750 -0.021111 -0.053726  0.010054 -0.099036 0 0 0 0
 847011500 -0.030325 -0.050307  0.009573 -0.100008 0 0 0 0
 852511250 -0.040613 -0.045049  0.008776 -0.099689 0 0 0 0
 858011000 -0.049795 -0.040414  0.008643 -0.100047 0 0 0 0
 863510750 -0.058394 -0.033699  0.007366 -0.100807 0 0 0 0
 869010500 -0.064883 -0.027463  0.006406 -0.100184 0 0 0 0
 874510250 -0.070620 -0.019502  0.005914 -0.100945 0 0 0 0
 880010000 -0.074736 -0.010250  0.004680 -0.101146 0 0 0 0
 885509750 -0.078768 -0.001168  0.004334 -0.100932 0 0 0 0
 891009500 -0.080307  0.009688  0.003101 -0.102068 0 0 0 0
 896509250 -0.081653  0.018822  0.002028 -0.101849 0 0 0 0
 902009000 -0.081084  0.029756  0.001206 -0.102088 0 0 0 0
 907508750 -0.079702  0.040241  0.000221 -0.102789 0 0 0 0
 913008500 -0.076611  0.049753 -0.000837 -0.102613 0 0 0 0
 918508250 -0.072227  0.058122 -0.002334 -0.102669 0 0 0 0
 924008000 -0.067329  0.068546 -0.002754 -0.103172 0 0 0 0
 929507750 -0.062601  0.079523 -0.003952 -0.102084 0 0 0 0
 935007500 -0.054923  0.087389 -0.005012 -0.102546 0 0 0 0
 940507250 -0.047884  0.093206 -0.005952 -0.102465 0 0 0 0
 946007000 -0.041153  0.101325 -0.006893 -0.101771 0 0 0 0
 951506750 -0.032222  0.106431 -0.007883 -0.102279 0 0 0 0
 957006500 -0.023261  0.110591 -0.008989 -0.101843 0 0 0 0
 962506250 -0.013850  0.113679 -0.009645 -0.101594 0 0 0 0
 968006000 -0.004546  0.115715 -0.010771 -0.101860 0 0 0 0
 973505750  0.006613  0.116701 -0.011769 -0.101255 0 0 0 0
 979005500  0.015243  0.116395 -0.012596 -0.102096 0 0 0 0
 984505250  0.023911  0.115389 -0.013482 -0.102591 0 0 0 0
 990005000  0.032882  0.114280 -0.014266 -0.101104 0 0 0 0
 995504750  0.041623  0.108999 -0.015761 -0.102106 0 0 0 0
1001004500  0.048706  0.104715 -0.016324 -0.101964 0 0 0 0
1006504250  0.056881  0.099535 -0.017137 -0.101768 0 0 0 0
1012004000  0.062946  0.094750 -0.018447 -0.102196 0 0 0 0
1017503750  0.068614  0.088908 -0.019059 -0.101607 0 0 0 0
1023003500  0.073076  0.081042 -0.021019 -0.101394 0 0 0 0
1028503250  0.077689  0.075291 -0.021199 -0.101374 0 0 0 0
1034003000  0.081369  0.067963 -0.021862 -0.100589 0 0 0 0
1039502750  0.082403  0.059518 -0.023468 -0.100945 0 0 0 0
1045002500  0.084592  0.050700 -0.024480 -0.100288 0 0 0 0
1050502250  0.084549  0.044663 -0.025545 -0.099033 0 0 0 0
1056002000  0.083379  0.035601 -0.026494 -0.099384 0 0 0 0
1061501750  0.081049  0.028716 -0.026909 -0.099529 0 0 0 0
1067001500  0.079692  0.020436 -0.027545 -0.098803 0 0 0 0
1072501250  0.075762  0.014522 -0.028217 -0.099020 0 0 0 0
1078001000  0.069749  0.008272 -0.028256 -0.098192 0 0 0 0
1083500750  0.065646  0.002818 -0.029335 -0.098258 0 0 0 0
1089000500  0.060759 -0.002686 -0.029550 -0.098576 0 0 0 0
1094500250  0.054420 -0.006288 -0.029563 -0.097841 0 0 0 0
1100000000  0.048260 -0.010599 -0.030609 -0.098967 0 0 0 0
