!File created by NanoVNA-F V2
# Hz S RI R 50
 100000000  0.012299  0.006078  0.005203  0.020454 0 0 0 0
 106250000  0.012320  0.005984  0.006029  0.021881 0 0 0 0
 112500000  0.014104  0.004420  0.006592  0.022994 0 0 0 0
 118750000  0.015238  0.003351  0.007190  0.024185 0 0 0 0
 125000000  0.014523  0.002744  0.008265  0.025485 0 0 0 0
 131250000  0.015551  0.001928  0.008843  0.027066 0 0 0 0
 137500000  0.016484  0.000417  0.010462  0.029918 0 0 0 0
 143750000  0.016869 -0.000296  0.011386  0.031069 0 0 0 0
 150000000  0.016944 -0.001201  0.012348  0.031976 0 0 0 0
 156250000  0.016876 -0.002578  0.013468  0.033365 0 0 0 0
 162500000  0.017635 -0.003236  0.014313  0.034318 0 0 0 0
 168750000  0.016965 -0.004841  0.015612  0.035465 0 0 0 0
 175000000  0.017404 -0.006502  0.016708  0.036456 0 0 0 0
 181250000  0.016855 -0.006883  0.018023  0.037592 0 0 0 0
 187500000  0.016738 -0.008573  0.019216  0.038930 0 0 0 0
 193750000  0.015766 -0.010535  0.020438  0.039987 0 0 0 0
 200000000  0.015034 -0.011076  0.021986  0.041261 0 0 0 0
 206250000  0.014709 -0.012097  0.023090  0.042102 0 0 0 0
 212500000  0.012310 -0.013412  0.024318  0.042980 0 0 0 0
 218750000  0.011175 -0.014625  0.025608  0.043920 0 0 0 0
 225000000  0.010369 -0.015191  0.026826  0.044694 0 0 0 0
 231250000  0.008814 -0.015361  0.028359  0.045564 0 0 0 0
 237500000  0.006033 -0.015895  0.029401  0.045851 0 0 0 0
 243750000  0.005022 -0.017098  0.030771  0.046722 0 0 0 0
 250000000  0.002970 -0.016472  0.032217  0.047624 0 0 0 0
 256250000  0.000575 -0.015705  0.033471  0.047809 0 0 0 0
 262500000 -0.000905 -0.014555  0.034926  0.048920 0 0 0 0
 268750000 -0.002527 -0.013308  0.036253  0.049180 0 0 0 0
 275000000 -0.004366 -0.011221  0.037897  0.050126 0 0 0 0
 281250000 -0.005281 -0.009245  0.039689  0.050570 0 0 0 0
 287500000 -0.006439 -0.006707  0.041246  0.051036 0 0 0 0
 293750000 -0.007971 -0.003665  0.042870  0.051703 0 0 0 0
 300000000 -0.007851 -0.001236  0.044213  0.051781 0 0 0 0
 306250000 -0.007547  0.003077  0.046211  0.052514 0 0 0 0
 312500000 -0.006979  0.006176  0.047807  0.052666 0 0 0 0
 318750000 -0.005490  0.009923  0.049387  0.053058 0 0 0 0
 325000000 -0.003905  0.014047  0.051046  0.053428 0 0 0 0
 331250000 -0.001854  0.017072  0.052423  0.053426 0 0 0 0
 337500000  0.001133  0.020298  0.054453  0.053668 0 0 0 0
 343750000  0.004642  0.023885  0.055834  0.053548 0 0 0 0
 350000000  0.009596  0.025921  0.057288  0.054001 0 0 0 0
 356250000  0.014835  0.029152  0.058986  0.053670 0 0 0 0
 362500000  0.020424  0.030562  0.060455  0.053485 0 0 0 0
 368750000  0.026265  0.032164  0.062447  0.053768 0 0 0 0
 375000000  0.032035  0.032855  0.063663  0.053306 0 0 0 0
 381250000  0.039467  0.032139  0.065980  0.053830 0 0 0 0
 387500000  0.046952  0.031015  0.067591  0.053541 0 0 0 0
 393750000  0.052916  0.028097  0.069423  0.053448 0 0 0 0
 400000000  0.061489  0.025004  0.071538  0.053254 0 0 0 0
 406250000  0.068763  0.020490  0.072885  0.052616 0 0 0 0
 412500000  0.076786  0.015298  0.075297  0.052740 0 0 0 0
 418750000  0.081833  0.008951  0.076686  0.052423 0 0 0 0
 425000000  0.089141  0.001256  0.078907  0.051794 0 0 0 0
 431250000  0.093374 -0.007537  0.080430  0.051273 0 0 0 0
 437500000  0.096960 -0.016373  0.081936  0.050455 0 0 0 0
 443750000  0.098744 -0.026930  0.083977  0.050028 0 0 0 0
 450000000  0.101044 -0.036575  0.085258  0.048939 0 0 0 0
 456250000  0.100457 -0.048244  0.087473  0.048474 0 0 0 0
 462500000  0.100381 -0.059299  0.088851  0.047580 0 0 0 0
 468750000  0.097913 -0.069355  0.090375  0.046961 0 0 0 0
 475000000  0.094621 -0.079647  0.091886  0.046406 0 0 0 0
 481250000  0.089592 -0.090918  0.092910  0.045473 0 0 0 0
 487500000  0.083611 -0.099242  0.095013  0.044961 0 0 0 0
 493750000  0.074747 -0.108456  0.096084  0.043497 0 0 0 0
 500000000  0.065684 -0.116727  0.098061  0.043078 0 0 0 0
 506250000  0.056156 -0.121930  0.099376  0.042465 0 0 0 0
 512500000  0.045075 -0.127287  0.101021  0.041717 0 0 0 0
 518750000  0.034300 -0.130616  0.103107  0.041208 0 0 0 0
 525000000  0.022993 -0.132503  0.104172  0.040267 0 0 0 0
 531250000  0.010648 -0.132711  0.106706  0.039675 0 0 0 0
 537500000 -0.000621 -0.131441  0.108119  0.038343 0 0 0 0
 543750000 -0.013328 -0.127547  0.110012  0.037277 0 0 0 0
 550000000 -0.024406 -0.122541  0.111788  0.036428 0 0 0 0
 556250000 -0.034855 -0.114667  0.113339  0.034765 0 0 0 0
 562500000 -0.044906 -0.106088  0.115712  0.033467 0 0 0 0
 568750000 -0.052203 -0.094974  0.116639  0.032260 0 0 0 0
 575000000 -0.058812 -0.084394  0.118629  0.031215 0 0 0 0
 581250000 -0.064103 -0.072397  0.119953  0.029448 0 0 0 0
 587500000 -0.067392 -0.059450  0.121506  0.027534 0 0 0 0
 593750000 -0.067955 -0.046683  0.123282  0.026271 0 0 0 0
 600000000 -0.067994 -0.032724  0.123569  0.023984 0 0 0 0
 606250000 -0.064955 -0.017509  0.126023  0.022418 0 0 0 0
 612500000 -0.058847 -0.005410  0.126650  0.020712 0 0 0 0
 618750000 -0.052481  0.007583  0.127990  0.018768 0 0 0 0
 625000000 -0.043535  0.017740  0.129518  0.017092 0 0 0 0
 631250000 -0.032970  0.026947  0.130127  0.015557 0 0 0 0
 637500000 -0.020635  0.034664  0.131890  0.013902 0 0 0 0
 643750000 -0.007381  0.040882  0.132354  0.012904 0 0 0 0
 650000000  0.006605  0.044518  0.133294  0.010790 0 0 0 0
 656250000  0.022446  0.045953  0.134706  0.009008 0 0 0 0
 662500000  0.039345  0.044152  0.135339  0.006717 0 0 0 0
 668750000  0.056743  0.040863  0.137202  0.004921 0 0 0 0
 675000000  0.071860  0.035412  0.137533  0.003542 0 0 0 0
 681250000  0.087307  0.027534  0.139505  0.001619 0 0 0 0
 687500000  0.101550  0.016196  0.139761 -0.000082 0 0 0 0
 693750000  0.115655  0.003502  0.140881 -0.002451 0 0 0 0
 700000000  0.127439 -0.010440  0.142044 -0.004242 0 0 0 0
 706250000  0.136265 -0.026133  0.142585 -0.006910 0 0 0 0
 712500000  0.142483 -0.043433  0.143951 -0.008937 0 0 0 0
 718750000  0.147042 -0.062074  0.143889 -0.010356 0 0 0 0
 725000000  0.149521 -0.081116  0.144671 -0.013170 0 0 0 0
 731250000  0.149375 -0.099400  0.145218 -0.015363 0 0 0 0
 737500000  0.144979 -0.119778  0.145328 -0.017383 0 0 0 0
 743750000  0.139257 -0.137111  0.145670 -0.019861 0 0 0 0
 750000000  0.132118 -0.154681  0.145476 -0.021084 0 0 0 0
 756250000  0.120480 -0.171452  0.146611 -0.023593 0 0 0 0
 762500000  0.106989 -0.187434  0.146380 -0.025331 0 0 0 0
 768750000  0.093439 -0.200075  0.146844 -0.027354 0 0 0 0
 775000000  0.076551 -0.210440  0.146756 -0.029441 0 0 0 0
 781250000  0.059946 -0.220094  0.146459 -0.030876 0 0 0 0
 787500000  0.040022 -0.226075  0.147349 -0.032692 0 0 0 0
 793750000  0.021085 -0.230933  0.146933 -0.034624 0 0 0 0
 800000000  0.000364 -0.231591  0.148032 -0.036799 0 0 0 0
 806250000 -0.019155 -0.231016  0.148131 -0.038181 0 0 0 0
 812500000 -0.039173 -0.227686  0.148584 -0.039777 0 0 0 0
 818750000 -0.056979 -0.220825  0.149685 -0.041579 0 0 0 0
 825000000 -0.074958 -0.212430  0.149271 -0.042779 0 0 0 0
 831250000 -0.092230 -0.202873  0.150833 -0.046346 0 0 0 0
 837500000 -0.107753 -0.189454  0.150899 -0.048072 0 0 0 0
 843750000 -0.118772 -0.173745  0.152017 -0.050095 0 0 0 0
 850000000 -0.129936 -0.156942  0.152388 -0.053206 0 0 0 0
 856250000 -0.137147 -0.140244  0.152427 -0.055138 0 0 0 0
 862500000 -0.143912 -0.121529  0.152754 -0.058114 0 0 0 0
 868750000 -0.147170 -0.101579  0.152588 -0.060802 0 0 0 0
 875000000 -0.144692 -0.081575  0.153422 -0.063326 0 0 0 0
 881250000 -0.141520 -0.063105  0.153349 -0.066121 0 0 0 0
 887500000 -0.135954 -0.044816  0.152848 -0.069589 0 0 0 0
 893750000 -0.128837 -0.028964  0.153244 -0.072141 0 0 0 0
 900000000 -0.117297 -0.013417  0.152091 -0.074844 0 0 0 0
 906250000 -0.105358  0.000484  0.152256 -0.078057 0 0 0 0
 912500000 -0.090267  0.010524  0.151292 -0.080926 0 0 0 0
 918750000 -0.076117  0.017860  0.150690 -0.083568 0 0 0 0
 925000000 -0.059574  0.023740  0.150057 -0.085873 0 0 0 0
 931250000 -0.041873  0.025803  0.147724 -0.088059 0 0 0 0
 937500000 -0.024141  0.023895  0.147897 -0.090382 0 0 0 0
 943750000 -0.006575  0.020842  0.145680 -0.092408 0 0 0 0
 950000000  0.009344  0.014989  0.145358 -0.095098 0 0 0 0
 956250000  0.024975  0.005105  0.144058 -0.097664 0 0 0 0
 962500000  0.038598 -0.006250  0.143456 -0.098980 0 0 0 0
 968750000  0.050488 -0.019406  0.143012 -0.101221 0 0 0 0
 975000000  0.060784 -0.033960  0.140891 -0.103260 0 0 0 0
 981250000  0.066936 -0.051066  0.140339 -0.106262 0 0 0 0
 987500000  0.071682 -0.069237  0.138969 -0.108287 0 0 0 0
 993750000  0.070705 -0.085612  0.137797 -0.110935 0 0 0 0
1000000000  0.069240 -0.103142  0.137266 -0.113102 0 0 0 0
1006250000  0.065191 -0.119772  0.135599 -0.115485 0 0 0 0
1012500000  0.056499 -0.137006  0.135261 -0.117975 0 0 0 0
1018750000  0.047865 -0.149976  0.133003 -0.119820 0 0 0 0
1025000000  0.035458 -0.163558  0.131407 -0.122623 0 0 0 0
1031250000  0.022274 -0.173038  0.130330 -0.124387 0 0 0 0
1037500000  0.006783 -0.181442  0.127593 -0.127217 0 0 0 0
1043750000 -0.009652 -0.188380  0.126382 -0.128447 0 0 0 0
1050000000 -0.025998 -0.192250  0.124212 -0.129157 0 0 0 0
1056250000 -0.042971 -0.193228  0.121915 -0.131563 0 0 0 0
1062500000 -0.058853 -0.193150  0.120366 -0.132840 0 0 0 0
1068750000 -0.076127 -0.188171  0.117618 -0.134293 0 0 0 0
1075000000 -0.092188 -0.184104  0.116768 -0.136015 0 0 0 0
1081250000 -0.106359 -0.177676  0.115615 -0.136057 0 0 0 0
1087500000 -0.119899 -0.166689  0.114721 -0.137965 0 0 0 0
1093750000 -0.130653 -0.155648  0.112378 -0.137776 0 0 0 0
1100000000 -0.141736 -0.141114  0.112597 -0.139799 0 0 0 0
1106250000 -0.151007 -0.126089  0.110858 -0.141008 0 0 0 0
1112500000 -0.157087 -0.110487  0.110301 -0.142281 0 0 0 0
1118750000 -0.160453 -0.094071  0.110583 -0.144289 0 0 0 0
1125000000 -0.162128 -0.077704  0.108195 -0.144814 0 0 0 0
1131250000 -0.162545 -0.061344  0.108416 -0.148376 0 0 0 0
1137500000 -0.160070 -0.044117  0.106989 -0.149613 0 0 0 0
1143750000 -0.154399 -0.027666  0.105755 -0.153006 0 0 0 0
1150000000 -0.147400 -0.013988  0.105213 -0.155621 0 0 0 0
1156250000 -0.138294 -0.001164  0.103919 -0.157358 0 0 0 0
1162500000 -0.126410  0.010263  0.101030 -0.161239 0 0 0 0
1168750000 -0.114638  0.019677  0.098350 -0.163119 0 0 0 0
1175000000 -0.099916  0.026095  0.095957 -0.166360 0 0 0 0
1181250000 -0.084125  0.030596  0.093027 -0.169176 0 0 0 0
1187500000 -0.067894  0.031882  0.090801 -0.170528 0 0 0 0
1193750000 -0.051136  0.031160  0.089100 -0.172225 0 0 0 0
1200000000 -0.034807  0.027233  0.084006 -0.169889 0 0 0 0
1206250000 -0.019296  0.021121  0.081962 -0.175980 0 0 0 0
1212500000 -0.001963  0.012241  0.077622 -0.177268 0 0 0 0
1218750000  0.009847 -0.002423  0.073557 -0.178910 0 0 0 0
1225000000  0.020168 -0.015476  0.070942 -0.180205 0 0 0 0
1231250000  0.026103 -0.030956  0.068468 -0.179221 0 0 0 0
1237500000  0.029911 -0.046872  0.065799 -0.179729 0 0 0 0
1243750000  0.030779 -0.062180  0.063507 -0.179257 0 0 0 0
1250000000  0.029034 -0.081197  0.060115 -0.180831 0 0 0 0
1256250000  0.023075 -0.098956  0.058639 -0.180756 0 0 0 0
1262500000  0.017058 -0.113937  0.056422 -0.181447 0 0 0 0
1268750000  0.006874 -0.130071  0.055027 -0.181257 0 0 0 0
1275000000 -0.005930 -0.141569  0.053029 -0.180077 0 0 0 0
1281250000 -0.019623 -0.152631  0.050949 -0.181810 0 0 0 0
1287500000 -0.035337 -0.158039  0.048450 -0.181515 0 0 0 0
1293750000 -0.053343 -0.161376  0.046569 -0.183809 0 0 0 0
1300000000 -0.071530 -0.162738  0.044342 -0.184420 0 0 0 0
1306250000 -0.087133 -0.161073  0.042147 -0.186219 0 0 0 0
1312500000 -0.105365 -0.157191  0.039690 -0.186861 0 0 0 0
1318750000 -0.123187 -0.149009  0.035223 -0.186581 0 0 0 0
1325000000 -0.136495 -0.140838  0.034064 -0.188613 0 0 0 0
1331250000 -0.150965 -0.126809  0.032440 -0.188061 0 0 0 0
1337500000 -0.161134 -0.113807  0.029897 -0.187369 0 0 0 0
1343750000 -0.174520 -0.098834  0.027187 -0.188857 0 0 0 0
1350000000 -0.181255 -0.082768  0.023919 -0.187017 0 0 0 0
