!File created by NanoVNA-F V2
# Hz S RI R 50
     50000 -0.004495 -0.003977 -0.000061 -0.000089 0 0 0 0
  15049750  0.000794  0.002972 -0.000011  0.001116 0 0 0 0
  30049500  0.005060  0.003516  0.000066  0.002438 0 0 0 0
  45049250  0.007163  0.005812 -0.000107  0.003417 0 0 0 0
  60049000  0.008201  0.003251 -0.000071  0.004607 0 0 0 0
  75048750  0.008488  0.003561 -0.000204  0.005892 0 0 0 0
  90048500  0.009090  0.000014 -0.000433  0.006970 0 0 0 0
 105048250  0.009429 -0.000678 -0.000667  0.008255 0 0 0 0
 120048000  0.009793 -0.002143 -0.001055  0.009334 0 0 0 0
 135047750  0.009037 -0.004358 -0.000961  0.010886 0 0 0 0
 150047500  0.007675 -0.004876 -0.001191  0.012054 0 0 0 0
 165047250  0.005968 -0.006859 -0.001373  0.013262 0 0 0 0
 180047000  0.004453 -0.007697 -0.001683  0.014415 0 0 0 0
 195046750  0.002293 -0.008428 -0.002052  0.015586 0 0 0 0
 210046500 -0.000503 -0.008161 -0.002400  0.016702 0 0 0 0
 225046250 -0.002328 -0.006913 -0.002656  0.017814 0 0 0 0
 240046000 -0.004794 -0.006606 -0.003270  0.019170 0 0 0 0
 255045750 -0.007452 -0.004399 -0.003604  0.020506 0 0 0 0
 270045500 -0.010767 -0.002578 -0.004177  0.021885 0 0 0 0
 285045250 -0.012622  0.001179 -0.004740  0.022960 0 0 0 0
 300045000 -0.014451  0.005633 -0.005333  0.024345 0 0 0 0
 315044750 -0.014659  0.010133 -0.005901  0.025465 0 0 0 0
 330044500 -0.013408  0.015951 -0.006483  0.026520 0 0 0 0
 345044250 -0.011125  0.020852 -0.007205  0.027615 0 0 0 0
 360044000 -0.006507  0.024736 -0.008057  0.028583 0 0 0 0
 375043750 -0.000780  0.029134 -0.008634  0.029729 0 0 0 0
 390043500  0.006177  0.028904 -0.009260  0.030842 0 0 0 0
 405043250  0.013352  0.028685 -0.010031  0.031654 0 0 0 0
 420043000  0.019217  0.024265 -0.010876  0.032630 0 0 0 0
 435042750  0.027118  0.018236 -0.012065  0.033403 0 0 0 0
 450042500  0.030551  0.010167 -0.012925  0.034436 0 0 0 0
 465042250  0.032305 -0.000018 -0.013720  0.035621 0 0 0 0
 480042000  0.031166 -0.009755 -0.015022  0.036820 0 0 0 0
 495041750  0.025223 -0.018908 -0.015868  0.037890 0 0 0 0
 510041500  0.017805 -0.026324 -0.016335  0.039277 0 0 0 0
 525041250  0.006489 -0.031368 -0.017267  0.040310 0 0 0 0
 540041000 -0.008103 -0.032742 -0.018123  0.040986 0 0 0 0
 555040750 -0.019986 -0.030183 -0.019076  0.041856 0 0 0 0
 570040500 -0.033797 -0.022313 -0.020049  0.042903 0 0 0 0
 585040250 -0.045395 -0.010207 -0.021204  0.043589 0 0 0 0
 600040000 -0.053327  0.003473 -0.022616  0.044578 0 0 0 0
 615039750 -0.056467  0.019765 -0.023704  0.045376 0 0 0 0
 630039500 -0.055520  0.036310 -0.024993  0.046123 0 0 0 0
 645039250 -0.048375  0.051209 -0.025983  0.046903 0 0 0 0
 660039000 -0.035741  0.062899 -0.027086  0.047660 0 0 0 0
 675038750 -0.018840  0.073431 -0.028851  0.048025 0 0 0 0
 690038500 -0.000746  0.077713 -0.030478  0.048670 0 0 0 0
 705038250  0.018013  0.076544 -0.031812  0.049202 0 0 0 0
 720038000  0.036343  0.070567 -0.033438  0.050338 0 0 0 0
 735037750  0.050024  0.057339 -0.034572  0.051210 0 0 0 0
 750037500  0.060424  0.041615 -0.035879  0.052253 0 0 0 0
 765037250  0.064370  0.024147 -0.036663  0.052931 0 0 0 0
 780037000  0.060569  0.006543 -0.037744  0.053312 0 0 0 0
 795036750  0.051945 -0.010142 -0.038669  0.053751 0 0 0 0
 810036500  0.035458 -0.021825 -0.039627  0.053615 0 0 0 0
 825036250  0.018744 -0.030147 -0.041363  0.053337 0 0 0 0
 840036000  0.001140 -0.030743 -0.042988  0.053343 0 0 0 0
 855035750 -0.017743 -0.025881 -0.044272  0.053933 0 0 0 0
 870035500 -0.033618 -0.018477 -0.046363  0.054039 0 0 0 0
 885035250 -0.046112 -0.003396 -0.048163  0.054555 0 0 0 0
 900035000 -0.052092  0.014716 -0.049810  0.055221 0 0 0 0
 915034750 -0.052249  0.032344 -0.050836  0.055627 0 0 0 0
 930034500 -0.047325  0.051826 -0.052371  0.055641 0 0 0 0
 945034250 -0.036942  0.069209 -0.053249  0.055955 0 0 0 0
 960034000 -0.022656  0.081482 -0.054970  0.055334 0 0 0 0
 975033750 -0.003820  0.089676 -0.056386  0.055640 0 0 0 0
 990033500  0.013000  0.092004 -0.058613  0.055912 0 0 0 0
1005033250  0.029880  0.086636 -0.060431  0.055698 0 0 0 0
1020033000  0.042554  0.078214 -0.061391  0.056293 0 0 0 0
1035032750  0.049688  0.066774 -0.063211  0.055832 0 0 0 0
1050032500  0.053375  0.054022 -0.064110  0.055899 0 0 0 0
1065032250  0.052311  0.041423 -0.065214  0.055898 0 0 0 0
1080032000  0.046397  0.033099 -0.066676  0.054813 0 0 0 0
1095031750  0.039930  0.026180 -0.069102  0.054180 0 0 0 0
1110031500  0.032602  0.020951 -0.071613  0.053485 0 0 0 0
1125031250  0.025373  0.024498 -0.074723  0.053950 0 0 0 0
1140031000  0.023171  0.025678 -0.076573  0.054654 0 0 0 0
1155030750  0.020017  0.029687 -0.077820  0.056415 0 0 0 0
1170030500  0.019519  0.034373 -0.078759  0.056617 0 0 0 0
1185030250  0.023800  0.038992 -0.079340  0.056388 0 0 0 0
1200030000  0.028380  0.041579 -0.079211  0.055926 0 0 0 0
1215029750  0.034680  0.039854 -0.079762  0.055085 0 0 0 0
1230029500  0.038775  0.035697 -0.081214  0.053163 0 0 0 0
1245029250  0.040844  0.027846 -0.082029  0.052608 0 0 0 0
1260029000  0.038653  0.021118 -0.085117  0.050919 0 0 0 0
1275028750  0.036595  0.010618 -0.087617  0.048937 0 0 0 0
1290028500  0.029581  0.007669 -0.090377  0.048723 0 0 0 0
1305028250  0.017610  0.002505 -0.091765  0.048443 0 0 0 0
1320028000  0.002005  0.002291 -0.093370  0.048000 0 0 0 0
1335027750 -0.010140  0.009884 -0.095934  0.048085 0 0 0 0
1350027500 -0.019447  0.025366 -0.097044  0.048032 0 0 0 0
1365027250 -0.025822  0.044170 -0.098496  0.048257 0 0 0 0
1380027000 -0.025833  0.064159 -0.099083  0.049016 0 0 0 0
1395026750 -0.018906  0.081577 -0.100541  0.047732 0 0 0 0
1410026500 -0.000953  0.098940 -0.101679  0.048358 0 0 0 0
1425026250  0.015644  0.116200 -0.101802  0.045055 0 0 0 0
1440026000  0.042538  0.119619 -0.102753  0.045198 0 0 0 0
1455025750  0.066850  0.114759 -0.102460  0.042780 0 0 0 0
1470025500  0.091221  0.105350 -0.103501  0.040726 0 0 0 0
1485025250  0.109786  0.084296 -0.105095  0.037757 0 0 0 0
1500025000  0.120895  0.060993 -0.107355  0.035428 0 0 0 0
1515024750  0.129094  0.031834 -0.109826  0.032978 0 0 0 0
1530024500  0.125681  0.000364 -0.112525  0.032961 0 0 0 0
1545024250  0.112578 -0.029527 -0.114335  0.032989 0 0 0 0
1560024000  0.091423 -0.050152 -0.116893  0.032205 0 0 0 0
1575023750  0.064437 -0.062865 -0.119059  0.031353 0 0 0 0
1590023500  0.033787 -0.063698 -0.120573  0.030605 0 0 0 0
1605023250  0.004729 -0.056172 -0.121407  0.030310 0 0 0 0
1620023000 -0.022771 -0.041052 -0.122346  0.029597 0 0 0 0
1635022750 -0.043965 -0.015597 -0.122066  0.028298 0 0 0 0
1650022500 -0.053578  0.014956 -0.123026  0.027091 0 0 0 0
1665022250 -0.055038  0.043952 -0.123463  0.025146 0 0 0 0
1680022000 -0.045681  0.076599 -0.124538  0.023444 0 0 0 0
1695021750 -0.027627  0.098402 -0.124583  0.022579 0 0 0 0
1710021500 -0.001953  0.110723 -0.125115  0.020258 0 0 0 0
1725021250  0.025927  0.119571 -0.127135  0.018141 0 0 0 0
1740021000  0.049438  0.110965 -0.128388  0.014691 0 0 0 0
1755020750  0.074432  0.104999 -0.129466  0.012849 0 0 0 0
1770020500  0.091679  0.090354 -0.131778  0.010559 0 0 0 0
1785020250  0.106133  0.072540 -0.135000  0.008595 0 0 0 0
1800020000  0.110825  0.055518 -0.137613  0.007533 0 0 0 0
1815019750  0.109205  0.035634 -0.138797  0.008817 0 0 0 0
1830019500  0.103493  0.022393 -0.140543  0.010239 0 0 0 0
1845019250  0.095934  0.009046 -0.140621  0.009873 0 0 0 0
1860019000  0.082267  0.001632 -0.139830  0.010244 0 0 0 0
1875018750  0.070162 -0.000787 -0.138106  0.009019 0 0 0 0
1890018500  0.064940  0.002788 -0.136262  0.005827 0 0 0 0
1905018250  0.063210  0.005965 -0.135984  0.002670 0 0 0 0
1920018000  0.064688  0.010825 -0.136612 -0.001193 0 0 0 0
1935017750  0.069931  0.008605 -0.137335 -0.005366 0 0 0 0
1950017500  0.070988  0.005061 -0.139519 -0.007989 0 0 0 0
1965017250  0.073230 -0.003305 -0.140534 -0.012755 0 0 0 0
1980017000  0.069418 -0.011822 -0.142755 -0.013601 0 0 0 0
1995016750  0.062572 -0.021759 -0.143678 -0.015957 0 0 0 0
2010016500  0.046253 -0.029018 -0.144294 -0.017436 0 0 0 0
2025016250  0.026182 -0.033476 -0.146685 -0.020778 0 0 0 0
2040016000  0.002558 -0.030755 -0.149942 -0.023430 0 0 0 0
2055015750 -0.012804 -0.015906 -0.153533 -0.022585 0 0 0 0
2070015500 -0.031642  0.008379 -0.156491 -0.024344 0 0 0 0
2085015250 -0.038605  0.033363 -0.159327 -0.018292 0 0 0 0
2100015000 -0.040749  0.066369 -0.158610 -0.015252 0 0 0 0
2115014750 -0.029379  0.101008 -0.155010 -0.014486 0 0 0 0
2130014500 -0.002968  0.130646 -0.149109 -0.012471 0 0 0 0
2145014250  0.030650  0.159533 -0.143389 -0.015093 0 0 0 0
2160014000  0.071818  0.172825 -0.138878 -0.021992 0 0 0 0
2175013750  0.118497  0.176160 -0.136757 -0.028916 0 0 0 0
2190013500  0.169552  0.165892 -0.136650 -0.035906 0 0 0 0
2205013250  0.213834  0.136545 -0.139017 -0.041830 0 0 0 0
2220013000  0.245842  0.091651 -0.141239 -0.044456 0 0 0 0
2235012750  0.264013  0.044436 -0.145913 -0.047422 0 0 0 0
2250012500  0.263661 -0.019338 -0.146355 -0.048445 0 0 0 0
2265012250  0.246669 -0.074259 -0.149837 -0.048261 0 0 0 0
2280012000  0.231408 -0.122270 -0.147459 -0.049715 0 0 0 0
2295011750  0.164185 -0.159642 -0.145522 -0.050469 0 0 0 0
2310011500  0.094124 -0.175825 -0.144368 -0.053131 0 0 0 0
2325011250  0.031499 -0.173639 -0.146080 -0.055345 0 0 0 0
2340011000 -0.021307 -0.156327 -0.150000 -0.059564 0 0 0 0
2355010750 -0.076354 -0.118735 -0.149636 -0.060992 0 0 0 0
2370010500 -0.110968 -0.067021 -0.148926 -0.059530 0 0 0 0
2385010250 -0.131768 -0.008691 -0.148727 -0.056020 0 0 0 0
2400010000 -0.125594  0.050591 -0.145606 -0.060169 0 0 0 0
2415009750 -0.112249  0.122593 -0.141771 -0.064207 0 0 0 0
2430009500 -0.067088  0.172444 -0.139290 -0.065112 0 0 0 0
2445009250 -0.020747  0.209372 -0.137811 -0.072291 0 0 0 0
2460009000  0.041943  0.227891 -0.140935 -0.074645 0 0 0 0
2475008750  0.098107  0.233092 -0.143152 -0.077974 0 0 0 0
2490008500  0.160670  0.212703 -0.146195 -0.079696 0 0 0 0
2505008250  0.211430  0.187426 -0.143011 -0.076510 0 0 0 0
2520008000  0.252575  0.142145 -0.140942 -0.071647 0 0 0 0
2535007750  0.277628  0.093217 -0.138116 -0.075206 0 0 0 0
2550007500  0.281762  0.021140 -0.131838 -0.075824 0 0 0 0
2565007250  0.263478 -0.027651 -0.125086 -0.079888 0 0 0 0
2580007000  0.234074 -0.069230 -0.121086 -0.087000 0 0 0 0
2595006750  0.204458 -0.101000 -0.122672 -0.093008 0 0 0 0
2610006500  0.166451 -0.123674 -0.124147 -0.100252 0 0 0 0
2625006250  0.128763 -0.140349 -0.127629 -0.105504 0 0 0 0
2640006000  0.094537 -0.142731 -0.130903 -0.106563 0 0 0 0
2655005750  0.056592 -0.139576 -0.135871 -0.110414 0 0 0 0
2670005500  0.023514 -0.126926 -0.140905 -0.110262 0 0 0 0
2685005250  0.001402 -0.101867 -0.142367 -0.106868 0 0 0 0
2700005000 -0.025677 -0.066437 -0.143766 -0.105825 0 0 0 0
2715004750 -0.036549 -0.029787 -0.142090 -0.103469 0 0 0 0
2730004500 -0.030999  0.017259 -0.144197 -0.097235 0 0 0 0
2745004250 -0.004810  0.054083 -0.138863 -0.093437 0 0 0 0
2760004000  0.044007  0.070851 -0.131763 -0.086210 0 0 0 0
2775003750  0.090987  0.021681 -0.117275 -0.084545 0 0 0 0
2790003500  0.006707 -0.042462 -0.102038 -0.092046 0 0 0 0
2805003250 -0.079995  0.039261 -0.097883 -0.111085 0 0 0 0
2820003000 -0.070611  0.147019 -0.099542 -0.120315 0 0 0 0
2835002750 -0.007340  0.217046 -0.103087 -0.126473 0 0 0 0
2850002500  0.094212  0.261912 -0.107966 -0.135984 0 0 0 0
2865002250  0.171824  0.244559 -0.107619 -0.139401 0 0 0 0
2880002000  0.253193  0.220485 -0.111065 -0.143165 0 0 0 0
2895001750  0.323944  0.153495 -0.115949 -0.146766 0 0 0 0
2910001500  0.367461  0.085589 -0.119532 -0.150964 0 0 0 0
2925001250  0.397953 -0.002331 -0.141281 -0.157106 0 0 0 0
2940001000  0.395744 -0.081579 -0.155461 -0.139737 0 0 0 0
2955000750  0.369104 -0.169270 -0.146070 -0.119175 0 0 0 0
2970000500  0.321602 -0.237673 -0.127876 -0.108094 0 0 0 0
2985000250  0.249611 -0.290955 -0.115311 -0.108131 0 0 0 0
3000000000  0.174310 -0.333090 -0.106504 -0.110410 0 0 0 0
