!File created by NanoVNA-F V2
# Hz S RI R 50
     50000 -0.005442 -0.003297 -0.000043 -0.000094 0 0 0 0
  15049750  0.000301  0.003382 -0.000006  0.001105 0 0 0 0
  30049500  0.004527  0.005284  0.000107  0.002340 0 0 0 0
  45049250  0.006530  0.005714 -0.000242  0.003370 0 0 0 0
  60049000  0.007752  0.004860 -0.000342  0.004548 0 0 0 0
  75048750  0.009233  0.002470 -0.000472  0.005519 0 0 0 0
  90048500  0.007960  0.001832 -0.001017  0.006738 0 0 0 0
 105048250  0.009790  0.000525 -0.001353  0.008133 0 0 0 0
 120048000  0.011813 -0.002005 -0.001688  0.008906 0 0 0 0
 135047750  0.009853 -0.003133 -0.002076  0.010494 0 0 0 0
 150047500  0.008711 -0.004870 -0.002422  0.011476 0 0 0 0
 165047250  0.007846 -0.006678 -0.003128  0.012660 0 0 0 0
 180047000  0.005363 -0.007853 -0.003569  0.013718 0 0 0 0
 195046750  0.003307 -0.009550 -0.004313  0.014652 0 0 0 0
 210046500 -0.000189 -0.009184 -0.005108  0.015748 0 0 0 0
 225046250 -0.002788 -0.007955 -0.005729  0.016710 0 0 0 0
 240046000 -0.005225 -0.008437 -0.006534  0.017834 0 0 0 0
 255045750 -0.008986 -0.005592 -0.007479  0.018681 0 0 0 0
 270045500 -0.011756 -0.002047 -0.008467  0.019826 0 0 0 0
 285045250 -0.013813  0.002378 -0.009460  0.020764 0 0 0 0
 300045000 -0.014928  0.007230 -0.010469  0.021779 0 0 0 0
 315044750 -0.015187  0.012787 -0.011476  0.022576 0 0 0 0
 330044500 -0.011912  0.018533 -0.012847  0.023463 0 0 0 0
 345044250 -0.008767  0.024244 -0.014005  0.024064 0 0 0 0
 360044000 -0.002956  0.026940 -0.015238  0.024676 0 0 0 0
 375043750  0.003845  0.029293 -0.016385  0.025354 0 0 0 0
 390043500  0.010947  0.028207 -0.017694  0.026018 0 0 0 0
 405043250  0.017986  0.026548 -0.018954  0.026396 0 0 0 0
 420043000  0.024417  0.020424 -0.020416  0.026685 0 0 0 0
 435042750  0.030890  0.013092 -0.021958  0.026908 0 0 0 0
 450042500  0.033276  0.004063 -0.023355  0.027094 0 0 0 0
 465042250  0.032478 -0.007100 -0.025148  0.027667 0 0 0 0
 480042000  0.029332 -0.015793 -0.026850  0.027929 0 0 0 0
 495041750  0.021752 -0.024558 -0.028191  0.028568 0 0 0 0
 510041500  0.012277 -0.030823 -0.029332  0.029222 0 0 0 0
 525041250 -0.001738 -0.034200 -0.030966  0.029020 0 0 0 0
 540041000 -0.015199 -0.032072 -0.032323  0.029353 0 0 0 0
 555040750 -0.027569 -0.026284 -0.033885  0.029211 0 0 0 0
 570040500 -0.039837 -0.016848 -0.035367  0.029296 0 0 0 0
 585040250 -0.049303 -0.003879 -0.037469  0.029187 0 0 0 0
 600040000 -0.055185  0.010029 -0.039103  0.028717 0 0 0 0
 615039750 -0.055954  0.025581 -0.040900  0.028748 0 0 0 0
 630039500 -0.052512  0.041136 -0.042515  0.028361 0 0 0 0
 645039250 -0.043713  0.055105 -0.044346  0.028090 0 0 0 0
 660039000 -0.029413  0.065104 -0.045876  0.027216 0 0 0 0
 675038750 -0.012867  0.073655 -0.047763  0.026329 0 0 0 0
 690038500  0.003043  0.076795 -0.049797  0.025514 0 0 0 0
 705038250  0.022823  0.074677 -0.051672  0.024796 0 0 0 0
 720038000  0.039102  0.066522 -0.053830  0.024355 0 0 0 0
 735037750  0.050575  0.052747 -0.055368  0.023954 0 0 0 0
 750037500  0.061304  0.036980 -0.057563  0.023144 0 0 0 0
 765037250  0.062675  0.020659 -0.058610  0.022575 0 0 0 0
 780037000  0.059847  0.002476 -0.060035  0.021537 0 0 0 0
 795036750  0.049535 -0.014421 -0.061395  0.020803 0 0 0 0
 810036500  0.033834 -0.025360 -0.062310  0.019511 0 0 0 0
 825036250  0.016466 -0.031006 -0.063686  0.017538 0 0 0 0
 840036000 -0.000674 -0.032442 -0.064966  0.015861 0 0 0 0
 855035750 -0.017974 -0.026733 -0.066534  0.014599 0 0 0 0
 870035500 -0.034697 -0.019086 -0.068279  0.012747 0 0 0 0
 885035250 -0.047468 -0.006169 -0.069964  0.011090 0 0 0 0
 900035000 -0.054026  0.012259 -0.071615  0.010176 0 0 0 0
 915034750 -0.056206  0.030415 -0.073530  0.007876 0 0 0 0
 930034500 -0.051287  0.047740 -0.074422  0.006988 0 0 0 0
 945034250 -0.043199  0.067827 -0.075213  0.005575 0 0 0 0
 960034000 -0.029890  0.082155 -0.076371  0.003710 0 0 0 0
 975033750 -0.012299  0.092873 -0.077397  0.001586 0 0 0 0
 990033500  0.007204  0.097747 -0.078883 -0.000457 0 0 0 0
1005033250  0.026178  0.094935 -0.080011 -0.002445 0 0 0 0
1020033000  0.041421  0.089406 -0.081346 -0.003968 0 0 0 0
1035032750  0.054997  0.078481 -0.082393 -0.005812 0 0 0 0
1050032500  0.062150  0.065291 -0.082566 -0.007493 0 0 0 0
1065032250  0.065661  0.048412 -0.083271 -0.010032 0 0 0 0
1080032000  0.062308  0.036256 -0.083211 -0.012642 0 0 0 0
1095031750  0.058541  0.023730 -0.083904 -0.016149 0 0 0 0
1110031500  0.047467  0.011447 -0.084891 -0.018889 0 0 0 0
1125031250  0.038794  0.007570 -0.087507 -0.021667 0 0 0 0
1140031000  0.028716  0.006301 -0.088151 -0.025098 0 0 0 0
1155030750  0.019940  0.009584 -0.090362 -0.025643 0 0 0 0
1170030500  0.012083  0.013436 -0.091218 -0.027233 0 0 0 0
1185030250  0.009697  0.018711 -0.091098 -0.027893 0 0 0 0
1200030000  0.007135  0.026599 -0.090095 -0.030806 0 0 0 0
1215029750  0.006949  0.033681 -0.088788 -0.032464 0 0 0 0
1230029500  0.010046  0.036641 -0.088878 -0.034677 0 0 0 0
1245029250  0.013907  0.041994 -0.088059 -0.037751 0 0 0 0
1260029000  0.017008  0.042712 -0.088260 -0.040679 0 0 0 0
1275028750  0.022998  0.041634 -0.087224 -0.045112 0 0 0 0
1290028500  0.027289  0.041701 -0.088929 -0.047526 0 0 0 0
1305028250  0.029009  0.037645 -0.087925 -0.050369 0 0 0 0
1320028000  0.025043  0.035746 -0.086497 -0.053146 0 0 0 0
1335027750  0.024411  0.033770 -0.087393 -0.056128 0 0 0 0
1350027500  0.020846  0.033935 -0.086744 -0.058671 0 0 0 0
1365027250  0.018503  0.037156 -0.087629 -0.061840 0 0 0 0
1380027000  0.013329  0.040694 -0.086846 -0.063911 0 0 0 0
1395026750  0.012788  0.045095 -0.086575 -0.065732 0 0 0 0
1410026500  0.015457  0.057080 -0.085946 -0.067919 0 0 0 0
1425026250  0.019147  0.065299 -0.084781 -0.070253 0 0 0 0
1440026000  0.026572  0.070184 -0.083419 -0.072877 0 0 0 0
1455025750  0.035829  0.071318 -0.081295 -0.073782 0 0 0 0
1470025500  0.047483  0.074652 -0.079138 -0.075717 0 0 0 0
1485025250  0.059401  0.070435 -0.076809 -0.079414 0 0 0 0
1500025000  0.067551  0.064126 -0.074744 -0.083546 0 0 0 0
1515024750  0.076476  0.054405 -0.072421 -0.086373 0 0 0 0
1530024500  0.081843  0.042231 -0.071930 -0.089683 0 0 0 0
1545024250  0.086642  0.026608 -0.070855 -0.091820 0 0 0 0
1560024000  0.082974  0.011373 -0.070608 -0.094343 0 0 0 0
1575023750  0.077717 -0.002696 -0.069036 -0.097741 0 0 0 0
1590023500  0.069597 -0.010094 -0.067613 -0.099719 0 0 0 0
1605023250  0.058363 -0.017949 -0.065949 -0.102254 0 0 0 0
1620023000  0.042772 -0.023522 -0.064933 -0.104283 0 0 0 0
1635022750  0.025620 -0.022502 -0.061664 -0.105841 0 0 0 0
1650022500  0.010670 -0.018453 -0.059181 -0.108236 0 0 0 0
1665022250 -0.002911 -0.007040 -0.056566 -0.108974 0 0 0 0
1680022000 -0.016021  0.005589 -0.053637 -0.111340 0 0 0 0
1695021750 -0.019594  0.024249 -0.051497 -0.113473 0 0 0 0
1710021500 -0.021766  0.039046 -0.049790 -0.114474 0 0 0 0
1725021250 -0.016723  0.059537 -0.045897 -0.118340 0 0 0 0
1740021000 -0.010142  0.070137 -0.042791 -0.120804 0 0 0 0
1755020750  0.001368  0.083584 -0.040707 -0.122066 0 0 0 0
1770020500  0.016948  0.094729 -0.037104 -0.124251 0 0 0 0
1785020250  0.033931  0.102268 -0.034721 -0.127539 0 0 0 0
1800020000  0.052917  0.105205 -0.031347 -0.129449 0 0 0 0
1815019750  0.071685  0.103619 -0.033451 -0.130377 0 0 0 0
1830019500  0.089980  0.103278 -0.030420 -0.132538 0 0 0 0
1845019250  0.108962  0.091166 -0.029586 -0.132044 0 0 0 0
1860019000  0.128551  0.076570 -0.027059 -0.132539 0 0 0 0
1875018750  0.139466  0.053198 -0.023205 -0.131060 0 0 0 0
1890018500  0.150607  0.029458 -0.018299 -0.129533 0 0 0 0
1905018250  0.152647  0.000865 -0.014395 -0.129721 0 0 0 0
1920018000  0.145345 -0.029964 -0.008757 -0.131730 0 0 0 0
1935017750  0.132567 -0.055474 -0.002463 -0.133110 0 0 0 0
1950017500  0.108767 -0.076941  0.000571 -0.134228 0 0 0 0
1965017250  0.080853 -0.090513  0.005599 -0.136571 0 0 0 0
1980017000  0.046185 -0.093261  0.008738 -0.139844 0 0 0 0
1995016750  0.015834 -0.090660  0.013044 -0.139735 0 0 0 0
2010016500 -0.021341 -0.076321  0.016812 -0.140194 0 0 0 0
2025016250 -0.052024 -0.055666  0.020229 -0.142165 0 0 0 0
2040016000 -0.077629 -0.027571  0.024221 -0.146304 0 0 0 0
2055015750 -0.086279  0.011870  0.024597 -0.147685 0 0 0 0
2070015500 -0.092139  0.053912  0.027045 -0.150244 0 0 0 0
2085015250 -0.082768  0.101588  0.026120 -0.151477 0 0 0 0
2100015000 -0.061676  0.145404  0.025179 -0.148785 0 0 0 0
2115014750 -0.018427  0.185542  0.025129 -0.146274 0 0 0 0
2130014500  0.035260  0.206436  0.022327 -0.141364 0 0 0 0
2145014250  0.093247  0.216173  0.029747 -0.133846 0 0 0 0
2160014000  0.152364  0.214240  0.037036 -0.129443 0 0 0 0
2175013750  0.202748  0.184988  0.044462 -0.126341 0 0 0 0
2190013500  0.245035  0.135052  0.053045 -0.125577 0 0 0 0
2205013250  0.275160  0.090645  0.063951 -0.125961 0 0 0 0
2220013000  0.288562  0.026883  0.067843 -0.126989 0 0 0 0
2235012750  0.274029 -0.031735  0.071819 -0.130424 0 0 0 0
2250012500  0.249236 -0.086161  0.075681 -0.131103 0 0 0 0
2265012250  0.213481 -0.127354  0.076383 -0.133946 0 0 0 0
2280012000  0.176153 -0.176835  0.067786 -0.138512 0 0 0 0
2295011750  0.106021 -0.174094  0.079274 -0.128294 0 0 0 0
2310011500  0.042276 -0.174990  0.084469 -0.125730 0 0 0 0
2325011250 -0.012908 -0.160046  0.088312 -0.125310 0 0 0 0
2340011000 -0.058159 -0.130058  0.092417 -0.127679 0 0 0 0
2355010750 -0.099448 -0.087295  0.095210 -0.127273 0 0 0 0
2370010500 -0.124964 -0.029856  0.097025 -0.125976 0 0 0 0
2385010250 -0.131415  0.028187  0.093651 -0.125472 0 0 0 0
2400010000 -0.120499  0.090317  0.100834 -0.118186 0 0 0 0
2415009750 -0.092254  0.158919  0.102986 -0.110705 0 0 0 0
2430009500 -0.040024  0.197546  0.106446 -0.106362 0 0 0 0
2445009250  0.013788  0.221835  0.113413 -0.101967 0 0 0 0
2460009000  0.074872  0.225195  0.118386 -0.104623 0 0 0 0
2475008750  0.124390  0.222098  0.124840 -0.102822 0 0 0 0
2490008500  0.182967  0.191708  0.126546 -0.102642 0 0 0 0
2505008250  0.219503  0.163702  0.122413 -0.099780 0 0 0 0
2520008000  0.244599  0.115527  0.117985 -0.098336 0 0 0 0
2535007750  0.265849  0.069472  0.120031 -0.096629 0 0 0 0
2550007500  0.260309  0.017070  0.122195 -0.089257 0 0 0 0
2565007250  0.253655 -0.025158  0.126357 -0.080494 0 0 0 0
2580007000  0.226863 -0.059334  0.131670 -0.072594 0 0 0 0
2595006750  0.205525 -0.088545  0.137891 -0.066790 0 0 0 0
2610006500  0.178893 -0.113237  0.142684 -0.063419 0 0 0 0
2625006250  0.142323 -0.135878  0.150603 -0.061988 0 0 0 0
2640006000  0.113451 -0.151380  0.153735 -0.062533 0 0 0 0
2655005750  0.071261 -0.156812  0.159896 -0.060978 0 0 0 0
2670005500  0.033092 -0.147009  0.164586 -0.062544 0 0 0 0
2685005250 -0.002475 -0.129607  0.163107 -0.066146 0 0 0 0
2700005000 -0.035390 -0.105970  0.161462 -0.063298 0 0 0 0
2715004750 -0.068139 -0.065249  0.162213 -0.063294 0 0 0 0
2730004500 -0.081428 -0.014163  0.162657 -0.064823 0 0 0 0
2745004250 -0.079462  0.031998  0.161705 -0.060182 0 0 0 0
2760004000 -0.070851  0.076418  0.159294 -0.056492 0 0 0 0
2775003750 -0.039098  0.137797  0.158489 -0.047679 0 0 0 0
2790003500 -0.010037  0.172732  0.156925 -0.048001 0 0 0 0
2805003250  0.030772  0.194169  0.157859 -0.038826 0 0 0 0
2820003000  0.091931  0.212082  0.158253 -0.031036 0 0 0 0
2835002750  0.153328  0.204919  0.162061 -0.025160 0 0 0 0
2850002500  0.221314  0.181118  0.168088 -0.022174 0 0 0 0
2865002250  0.265990  0.132138  0.173303 -0.017356 0 0 0 0
2880002000  0.295803  0.067923  0.175547 -0.014764 0 0 0 0
2895001750  0.300932  0.006226  0.180982 -0.014743 0 0 0 0
2910001500  0.286609 -0.049345  0.185006 -0.015318 0 0 0 0
2925001250  0.242732 -0.072706  0.197331 -0.029633 0 0 0 0
2940001000  0.215676 -0.048488  0.178872 -0.044265 0 0 0 0
2955000750  0.271941 -0.041019  0.150700 -0.032747 0 0 0 0
2970000500  0.323178 -0.135858  0.140519 -0.014065 0 0 0 0
2985000250  0.284654 -0.240852  0.138782 -0.002190 0 0 0 0
3000000000  0.191960 -0.312842  0.141705  0.010761 0 0 0 0
