!File created by NanoVNA-F V2
# Hz S RI R 50
     50000  0.984143 -0.001589  0.000032  0.000080 0 0 0 0
  15049750  0.920836 -0.388266 -0.000072 -0.000011 0 0 0 0
  30049500  0.692230 -0.709400 -0.000028  0.000008 0 0 0 0
  45049250  0.354537 -0.922387 -0.000162  0.000086 0 0 0 0
  60049000 -0.045037 -0.979395 -0.000127  0.000115 0 0 0 0
  75048750 -0.432050 -0.867402 -0.000217  0.000025 0 0 0 0
  90048500 -0.747916 -0.614854 -0.000351 -0.000040 0 0 0 0
 105048250 -0.936853 -0.255317 -0.000199 -0.000104 0 0 0 0
 120048000 -0.961873  0.161508 -0.000716  0.000513 0 0 0 0
 135047750 -0.802362  0.561102 -0.000446 -0.000225 0 0 0 0
 150047500 -0.479978  0.856367 -0.000486 -0.000341 0 0 0 0
 165047250 -0.054500  0.978420 -0.001154  0.000225 0 0 0 0
 180047000  0.378960  0.892102 -0.001535  0.000323 0 0 0 0
 195046750  0.722305  0.627413 -0.002172  0.000967 0 0 0 0
 210046500  0.906610  0.248326 -0.003484  0.001810 0 0 0 0
 225046250  0.913263 -0.166730 -0.005381  0.003894 0 0 0 0
 240046000  0.747635 -0.541656 -0.008060  0.007140 0 0 0 0
 255045750  0.431005 -0.817469 -0.011215  0.013199 0 0 0 0
 270045500  0.001757 -0.935743 -0.014728  0.023874 0 0 0 0
 285045250 -0.468325 -0.828395 -0.017506  0.043113 0 0 0 0
 300045000 -0.854158 -0.454260 -0.013771  0.080409 0 0 0 0
 315044750 -0.958799  0.142039  0.016311  0.146515 0 0 0 0
 330044500 -0.608496  0.704534  0.126222  0.228715 0 0 0 0
 345044250  0.062267  0.824154  0.373614  0.231657 0 0 0 0
 360044000  0.510034  0.385101  0.636482 -0.024243 0 0 0 0
 375043750  0.378797 -0.083708  0.642423 -0.479621 0 0 0 0
 390043500  0.073139 -0.103870  0.333364 -0.836797 0 0 0 0
 405043250  0.037752  0.052310 -0.095106 -0.930552 0 0 0 0
 420043000  0.151725  0.078051 -0.453673 -0.815161 0 0 0 0
 435042750  0.222265 -0.016971 -0.687168 -0.608613 0 0 0 0
 450042500  0.191190 -0.129390 -0.827206 -0.390611 0 0 0 0
 465042250  0.097744 -0.182335 -0.912090 -0.166458 0 0 0 0
 480042000  0.009822 -0.155825 -0.939074  0.063897 0 0 0 0
 495041750 -0.020432 -0.094033 -0.905150  0.296380 0 0 0 0
 510041500 -0.000224 -0.051550 -0.815056  0.491615 0 0 0 0
 525041250  0.030511 -0.053047 -0.694353  0.654042 0 0 0 0
 540041000  0.037484 -0.079611 -0.554560  0.774148 0 0 0 0
 555040750  0.017656 -0.099546 -0.404621  0.867023 0 0 0 0
 570040500 -0.009645 -0.095868 -0.247434  0.932209 0 0 0 0
 585040250 -0.023801 -0.078613 -0.076166  0.965175 0 0 0 0
 600040000 -0.025364 -0.061877  0.089755  0.963049 0 0 0 0
 615039750 -0.022652 -0.058305  0.239807  0.933325 0 0 0 0
 630039500 -0.028637 -0.052550  0.374374  0.884075 0 0 0 0
 645039250 -0.039610 -0.032252  0.493312  0.823779 0 0 0 0
 660039000 -0.036773  0.000899  0.608947  0.745197 0 0 0 0
 675038750 -0.007676  0.031977  0.705921  0.661001 0 0 0 0
 690038500  0.043528  0.042789  0.790588  0.555949 0 0 0 0
 705038250  0.099110  0.019253  0.857000  0.449537 0 0 0 0
 720038000  0.131309 -0.035712  0.900021  0.338071 0 0 0 0
 735037750  0.129171 -0.096997  0.932107  0.227109 0 0 0 0
 750037500  0.093160 -0.138442  0.954376  0.116416 0 0 0 0
 765037250  0.051954 -0.149325  0.964909  0.012183 0 0 0 0
 780037000  0.025545 -0.136056  0.960322 -0.104108 0 0 0 0
 795036750  0.021750 -0.120548  0.937976 -0.212691 0 0 0 0
 810036500  0.035466 -0.123855  0.903957 -0.312827 0 0 0 0
 825036250  0.041190 -0.149228  0.863709 -0.403690 0 0 0 0
 840036000  0.022900 -0.180953  0.817777 -0.489854 0 0 0 0
 855035750 -0.020727 -0.199966  0.769923 -0.564240 0 0 0 0
 870035500 -0.069170 -0.191122  0.718562 -0.643523 0 0 0 0
 885035250 -0.105244 -0.155646  0.657531 -0.719506 0 0 0 0
 900035000 -0.114442 -0.110668  0.579900 -0.792724 0 0 0 0
 915034750 -0.099826 -0.077115  0.489947 -0.852729 0 0 0 0
 930034500 -0.077650 -0.067642  0.393358 -0.886039 0 0 0 0
 945034250 -0.070417 -0.075733  0.307862 -0.906603 0 0 0 0
 960034000 -0.081357 -0.080073  0.223655 -0.921750 0 0 0 0
 975033750 -0.101981 -0.064842  0.151906 -0.933690 0 0 0 0
 990033500 -0.110212 -0.024939  0.078751 -0.951726 0 0 0 0
1005033250 -0.087599  0.021308 -0.008118 -0.966906 0 0 0 0
1020033000 -0.031730  0.048247 -0.097365 -0.971039 0 0 0 0
1035032750  0.041118  0.035131 -0.198912 -0.959742 0 0 0 0
1050032500  0.100905 -0.022918 -0.287022 -0.926649 0 0 0 0
1065032250  0.110425 -0.104181 -0.362554 -0.882218 0 0 0 0
1080032000  0.076839 -0.175708 -0.419862 -0.839006 0 0 0 0
1095031750  0.009024 -0.215690 -0.481875 -0.799647 0 0 0 0
1110031500 -0.056145 -0.210910 -0.531934 -0.774918 0 0 0 0
1125031250 -0.104765 -0.177541 -0.591341 -0.735346 0 0 0 0
1140031000 -0.120126 -0.135035 -0.656411 -0.694272 0 0 0 0
1155030750 -0.117906 -0.105206 -0.723282 -0.632963 0 0 0 0
1170030500 -0.108324 -0.102736 -0.774388 -0.571380 0 0 0 0
1185030250 -0.117210 -0.107189 -0.814050 -0.507034 0 0 0 0
1200030000 -0.143506 -0.099743 -0.848968 -0.445405 0 0 0 0
1215029750 -0.173240 -0.066064 -0.878365 -0.368629 0 0 0 0
1230029500 -0.181606 -0.008853 -0.904633 -0.309854 0 0 0 0
1245029250 -0.151894  0.051902 -0.929138 -0.243408 0 0 0 0
1260029000 -0.085086  0.089981 -0.953706 -0.175873 0 0 0 0
1275028750  0.000952  0.079350 -0.957440 -0.093647 0 0 0 0
1290028500  0.062806  0.014831 -0.961940 -0.017952 0 0 0 0
1305028250  0.072220 -0.072107 -0.966937  0.055667 0 0 0 0
1320028000  0.027041 -0.145966 -0.949713  0.141060 0 0 0 0
1335027750 -0.047014 -0.170973 -0.935618  0.194216 0 0 0 0
1350027500 -0.116604 -0.147171 -0.911215  0.258042 0 0 0 0
1365027250 -0.154399 -0.086675 -0.895875  0.326836 0 0 0 0
1380027000 -0.149269 -0.029953 -0.870961  0.390436 0 0 0 0
1395026750 -0.110674  0.002495 -0.838717  0.450752 0 0 0 0
1410026500 -0.072254 -0.003337 -0.805397  0.509624 0 0 0 0
1425026250 -0.056292 -0.033582 -0.766594  0.564461 0 0 0 0
1440026000 -0.076460 -0.057976 -0.729420  0.620416 0 0 0 0
1455025750 -0.114437 -0.052136 -0.694178  0.674255 0 0 0 0
1470025500 -0.137816 -0.010027 -0.642756  0.726227 0 0 0 0
1485025250 -0.121523  0.049251 -0.584030  0.775570 0 0 0 0
1500025000 -0.060414  0.089037 -0.521924  0.818936 0 0 0 0
1515024750  0.020340  0.078268 -0.464088  0.849050 0 0 0 0
1530024500  0.081066  0.016851 -0.386857  0.874234 0 0 0 0
1545024250  0.092805 -0.074787 -0.327239  0.899123 0 0 0 0
1560024000  0.044972 -0.152051 -0.277268  0.900514 0 0 0 0
1575023750 -0.039534 -0.177914 -0.222151  0.920378 0 0 0 0
1590023500 -0.119767 -0.151587 -0.174693  0.932467 0 0 0 0
1605023250 -0.163771 -0.082246 -0.108575  0.955488 0 0 0 0
1620023000 -0.147890 -0.013343 -0.043847  0.963816 0 0 0 0
1635022750 -0.091344  0.022978  0.030874  0.968803 0 0 0 0
1650022500 -0.032087  0.005653  0.097296  0.970435 0 0 0 0
1665022250 -0.010311 -0.051359  0.171282  0.952805 0 0 0 0
1680022000 -0.040520 -0.099046  0.240794  0.938057 0 0 0 0
1695021750 -0.104950 -0.111197  0.291387  0.905060 0 0 0 0
1710021500 -0.161084 -0.070257  0.346193  0.895396 0 0 0 0
1725021250 -0.176672  0.008328  0.403709  0.868681 0 0 0 0
1740021000 -0.132704  0.085264  0.470968  0.853711 0 0 0 0
1755020750 -0.041838  0.116530  0.532900  0.819033 0 0 0 0
1770020500  0.045494  0.080928  0.590209  0.774423 0 0 0 0
1785020250  0.091670  0.001112  0.637239  0.723730 0 0 0 0
1800020000  0.075605 -0.088754  0.672972  0.690862 0 0 0 0
1815019750  0.013574 -0.135543  0.717777  0.630403 0 0 0 0
1830019500 -0.056255 -0.131825  0.757736  0.590006 0 0 0 0
1845019250 -0.097474 -0.082037  0.792351  0.550498 0 0 0 0
1860019000 -0.080270 -0.024991  0.834640  0.494969 0 0 0 0
1875018750 -0.013755 -0.004771  0.865699  0.443187 0 0 0 0
1890018500  0.052259 -0.047501  0.892721  0.369090 0 0 0 0
1905018250  0.072980 -0.137333  0.911519  0.320119 0 0 0 0
1920018000  0.033033 -0.228332  0.925445  0.255902 0 0 0 0
1935017750 -0.070103 -0.283407  0.930173  0.187222 0 0 0 0
1950017500 -0.184160 -0.269174  0.933750  0.132335 0 0 0 0
1965017250 -0.276375 -0.189670  0.949953  0.073915 0 0 0 0
1980017000 -0.298027 -0.068255  0.947931  0.021759 0 0 0 0
1995016750 -0.245862  0.028881  0.953659 -0.034077 0 0 0 0
2010016500 -0.147656  0.064012  0.949807 -0.088990 0 0 0 0
2025016250 -0.065306  0.023988  0.941996 -0.153955 0 0 0 0
2040016000 -0.039486 -0.055987  0.936469 -0.205601 0 0 0 0
2055015750 -0.082810 -0.118603  0.925803 -0.283069 0 0 0 0
2070015500 -0.156000 -0.116898  0.909517 -0.352732 0 0 0 0
2085015250 -0.215596 -0.062473  0.870270 -0.394853 0 0 0 0
2100015000 -0.210615  0.031637  0.856258 -0.466473 0 0 0 0
2115014750 -0.128750  0.092485  0.814349 -0.521558 0 0 0 0
2130014500 -0.015272  0.087531  0.773007 -0.563228 0 0 0 0
2145014250  0.074214  0.005751  0.710417 -0.615060 0 0 0 0
2160014000  0.091864 -0.120340  0.663137 -0.633020 0 0 0 0
2175013750  0.030385 -0.244406  0.615404 -0.661136 0 0 0 0
2190013500 -0.092984 -0.304139  0.588936 -0.689225 0 0 0 0
2205013250 -0.219521 -0.283871  0.575529 -0.722115 0 0 0 0
2220013000 -0.299903 -0.189402  0.579028 -0.756798 0 0 0 0
2235012750 -0.306976 -0.084852  0.530633 -0.807080 0 0 0 0
2250012500 -0.244552 -0.016316  0.486499 -0.882281 0 0 0 0
2265012250 -0.151408 -0.025465  0.407430 -0.935674 0 0 0 0
2280012000 -0.098233 -0.104213  0.358204 -1.005584 0 0 0 0
2295011750 -0.148790 -0.186725  0.193926 -0.978396 0 0 0 0
2310011500 -0.256516 -0.232746  0.120557 -0.954107 0 0 0 0
2325011250 -0.373745 -0.194890  0.084052 -0.904645 0 0 0 0
2340011000 -0.447275 -0.095629  0.045817 -0.886027 0 0 0 0
2355010750 -0.449678  0.040302  0.022963 -0.880550 0 0 0 0
2370010500 -0.364316  0.146729 -0.016432 -0.907658 0 0 0 0
2385010250 -0.234682  0.169701 -0.069227 -0.937609 0 0 0 0
2400010000 -0.108355  0.102604 -0.135050 -0.965442 0 0 0 0
2415009750 -0.089793  0.001636 -0.231792 -0.981247 0 0 0 0
2430009500 -0.153081 -0.101642 -0.302797 -0.946929 0 0 0 0
2445009250 -0.272580 -0.123752 -0.364259 -0.896077 0 0 0 0
2460009000 -0.375260 -0.052675 -0.420655 -0.851512 0 0 0 0
2475008750 -0.391046  0.074536 -0.449734 -0.810427 0 0 0 0
2490008500 -0.317590  0.197220 -0.477694 -0.789157 0 0 0 0
2505008250 -0.163411  0.238939 -0.512031 -0.781309 0 0 0 0
2520008000 -0.003812  0.173888 -0.557934 -0.753281 0 0 0 0
2535007750  0.092099  0.031400 -0.624514 -0.730705 0 0 0 0
2550007500  0.068264 -0.146168 -0.689317 -0.655606 0 0 0 0
2565007250 -0.046309 -0.283506 -0.719351 -0.597302 0 0 0 0
2580007000 -0.218330 -0.333597 -0.778226 -0.545699 0 0 0 0
2595006750 -0.343899 -0.282371 -0.794887 -0.501906 0 0 0 0
2610006500 -0.389333 -0.180573 -0.816471 -0.468778 0 0 0 0
2625006250 -0.363192 -0.092658 -0.856532 -0.399723 0 0 0 0
2640006000 -0.283220 -0.102777 -0.869692 -0.349307 0 0 0 0
2655005750 -0.264552 -0.197486 -0.889245 -0.270606 0 0 0 0
2670005500 -0.359128 -0.292208 -0.894778 -0.204854 0 0 0 0
2685005250 -0.531273 -0.351336 -0.892943 -0.155719 0 0 0 0
2700005000 -0.727092 -0.232321 -0.890010 -0.077623 0 0 0 0
2715004750 -0.853606 -0.018498 -0.865667 -0.054242 0 0 0 0
2730004500 -0.832545  0.244392 -0.856981 -0.016426 0 0 0 0
2745004250 -0.673867  0.477170 -0.862288  0.005901 0 0 0 0
2760004000 -0.423520  0.586250 -0.869260  0.052105 0 0 0 0
2775003750 -0.163948  0.579415 -0.877696  0.075849 0 0 0 0
2790003500  0.048207  0.499694 -0.877559  0.148199 0 0 0 0
2805003250  0.176355  0.318870 -0.894701  0.219517 0 0 0 0
2820003000  0.203291  0.145779 -0.875595  0.268531 0 0 0 0
2835002750  0.159027 -0.007935 -0.865736  0.345368 0 0 0 0
2850002500  0.085257 -0.054917 -0.830672  0.409599 0 0 0 0
2865002250  0.080407 -0.044476 -0.785516  0.463028 0 0 0 0
2880002000  0.127165 -0.090233 -0.763774  0.509923 0 0 0 0
2895001750  0.182877 -0.201657 -0.707670  0.529350 0 0 0 0
2910001500  0.179297 -0.366176 -0.665196  0.580025 0 0 0 0
2925001250  0.070517 -0.564868 -0.620781  0.607619 0 0 0 0
2940001000 -0.180893 -0.672124 -0.570816  0.649946 0 0 0 0
2955000750 -0.459069 -0.653243 -0.537686  0.681899 0 0 0 0
2970000500 -0.698741 -0.445134 -0.499777  0.683283 0 0 0 0
2985000250 -0.787358 -0.127021 -0.461472  0.691539 0 0 0 0
3000000000 -0.707258  0.163399 -0.443869  0.721031 0 0 0 0
