!File created by NanoVNA-F V2
# Hz S RI R 50
     50000 -0.005599 -0.006798  0.333707 -0.006238 0 0 0 0
  15049750 -0.003708 -0.000873  0.324871 -0.007455 0 0 0 0
  30049500 -0.004742  0.001122  0.325752 -0.009769 0 0 0 0
  45049250 -0.004946  0.001937  0.325198 -0.013912 0 0 0 0
  60049000 -0.003205  0.000170  0.325383 -0.016718 0 0 0 0
  75048750 -0.003177  0.001156  0.325738 -0.020147 0 0 0 0
  90048500 -0.003994  0.001064  0.326067 -0.024483 0 0 0 0
 105048250 -0.002714  0.002193  0.326055 -0.028725 0 0 0 0
 120048000 -0.004183  0.002130  0.325158 -0.031267 0 0 0 0
 135047750 -0.004982  0.002233  0.333831 -0.037620 0 0 0 0
 150047500 -0.004494  0.002608  0.333116 -0.041409 0 0 0 0
 165047250 -0.004356  0.002388  0.332479 -0.045798 0 0 0 0
 180047000 -0.005006  0.003101  0.330419 -0.048950 0 0 0 0
 195046750 -0.004538  0.003763  0.329595 -0.052150 0 0 0 0
 210046500 -0.005417  0.005052  0.327231 -0.056617 0 0 0 0
 225046250 -0.004514  0.006076  0.326449 -0.059422 0 0 0 0
 240046000 -0.003922  0.005465  0.324674 -0.062173 0 0 0 0
 255045750 -0.003062  0.006454  0.323930 -0.065213 0 0 0 0
 270045500 -0.003372  0.005768  0.321776 -0.067976 0 0 0 0
 285045250 -0.003037  0.006003  0.320504 -0.071830 0 0 0 0
 300045000 -0.002331  0.005655  0.319270 -0.074532 0 0 0 0
 315044750 -0.002552  0.006314  0.319298 -0.077275 0 0 0 0
 330044500 -0.000875  0.006484  0.317840 -0.080539 0 0 0 0
 345044250 -0.001601  0.006149  0.316608 -0.084218 0 0 0 0
 360044000 -0.001649  0.005203  0.315248 -0.086909 0 0 0 0
 375043750 -0.001656  0.004102  0.315023 -0.090214 0 0 0 0
 390043500 -0.001203  0.004006  0.313348 -0.093728 0 0 0 0
 405043250 -0.002376  0.005435  0.311978 -0.098191 0 0 0 0
 420043000 -0.003061  0.003426  0.311187 -0.101398 0 0 0 0
 435042750 -0.002796  0.004688  0.310048 -0.104307 0 0 0 0
 450042500 -0.002896  0.003671  0.308691 -0.108769 0 0 0 0
 465042250 -0.004750  0.003128  0.307177 -0.112299 0 0 0 0
 480042000 -0.004943  0.005118  0.305846 -0.115962 0 0 0 0
 495041750 -0.004842  0.004915  0.303977 -0.118430 0 0 0 0
 510041500 -0.005967  0.004894  0.302701 -0.121586 0 0 0 0
 525041250 -0.007552  0.007106  0.301321 -0.124680 0 0 0 0
 540041000 -0.008575  0.007707  0.299963 -0.128194 0 0 0 0
 555040750 -0.007396  0.008450  0.298201 -0.130363 0 0 0 0
 570040500 -0.007279  0.009075  0.295429 -0.133263 0 0 0 0
 585040250 -0.007971  0.010028  0.295065 -0.135890 0 0 0 0
 600040000 -0.007218  0.010022  0.293726 -0.138970 0 0 0 0
 615039750 -0.006022  0.010908  0.291792 -0.143161 0 0 0 0
 630039500 -0.005321  0.012839  0.291488 -0.144305 0 0 0 0
 645039250 -0.004232  0.012173  0.289575 -0.148069 0 0 0 0
 660039000 -0.003424  0.012620  0.288893 -0.150318 0 0 0 0
 675038750 -0.001913  0.012381  0.286518 -0.154309 0 0 0 0
 690038500 -0.001973  0.012786  0.285976 -0.156079 0 0 0 0
 705038250 -0.001297  0.012535  0.284439 -0.159365 0 0 0 0
 720038000 -0.000686  0.012669  0.282532 -0.163195 0 0 0 0
 735037750 -0.001054  0.010714  0.281539 -0.166436 0 0 0 0
 750037500  0.001781  0.010872  0.279067 -0.169223 0 0 0 0
 765037250  0.002336  0.010666  0.277716 -0.172174 0 0 0 0
 780037000  0.000514  0.009558  0.275476 -0.175430 0 0 0 0
 795036750  0.001732  0.008047  0.273477 -0.178836 0 0 0 0
 810036500 -0.000094  0.008793  0.271981 -0.182504 0 0 0 0
 825036250 -0.000648  0.007786  0.270048 -0.185157 0 0 0 0
 840036000 -0.001183  0.007580  0.268664 -0.189135 0 0 0 0
 855035750 -0.001633  0.007504  0.266331 -0.191353 0 0 0 0
 870035500 -0.003632  0.007397  0.264023 -0.193642 0 0 0 0
 885035250 -0.004140  0.008120  0.262349 -0.197233 0 0 0 0
 900035000 -0.004754  0.008042  0.259364 -0.199417 0 0 0 0
 915034750 -0.006120  0.006481  0.256790 -0.203442 0 0 0 0
 930034500 -0.005430  0.010012  0.253780 -0.205088 0 0 0 0
 945034250 -0.006610  0.010561  0.251490 -0.207983 0 0 0 0
 960034000 -0.008590  0.013018  0.248795 -0.209695 0 0 0 0
 975033750 -0.006806  0.014827  0.246883 -0.212458 0 0 0 0
 990033500 -0.007830  0.015521  0.243249 -0.214661 0 0 0 0
1005033250 -0.006742  0.017030  0.242474 -0.216540 0 0 0 0
1020033000 -0.006125  0.018351  0.239911 -0.218446 0 0 0 0
1035032750 -0.003881  0.020095  0.237830 -0.221800 0 0 0 0
1050032500 -0.003536  0.021202  0.235129 -0.222688 0 0 0 0
1065032250 -0.000838  0.020674  0.234140 -0.224146 0 0 0 0
1080032000 -0.001934  0.020322  0.231863 -0.227732 0 0 0 0
1095031750  0.001836  0.020419  0.230281 -0.229948 0 0 0 0
1110031500  0.000543  0.019884  0.229134 -0.232582 0 0 0 0
1125031250  0.004608  0.021120  0.226093 -0.234252 0 0 0 0
1140031000  0.005140  0.017816  0.223860 -0.236776 0 0 0 0
1155030750  0.004432  0.017748  0.220802 -0.241094 0 0 0 0
1170030500  0.005569  0.015876  0.220180 -0.243032 0 0 0 0
1185030250  0.004110  0.015056  0.218078 -0.245316 0 0 0 0
1200030000  0.006332  0.013156  0.215450 -0.246453 0 0 0 0
1215029750  0.005516  0.011747  0.211955 -0.250609 0 0 0 0
1230029500  0.004767  0.010047  0.209161 -0.254213 0 0 0 0
1245029250  0.002423  0.010239  0.204245 -0.256748 0 0 0 0
1260029000 -0.001074  0.007335  0.201749 -0.259820 0 0 0 0
1275028750  0.000875  0.007180  0.200049 -0.261299 0 0 0 0
1290028500 -0.003433  0.009189  0.193261 -0.262873 0 0 0 0
1305028250 -0.005443  0.008494  0.194376 -0.261594 0 0 0 0
1320028000 -0.006416  0.010145  0.186993 -0.266730 0 0 0 0
1335027750 -0.008198  0.010246  0.185861 -0.267365 0 0 0 0
1350027500 -0.008535  0.011765  0.185392 -0.269491 0 0 0 0
1365027250 -0.009925  0.015989  0.179683 -0.272136 0 0 0 0
1380027000 -0.009894  0.018002  0.178275 -0.271000 0 0 0 0
1395026750 -0.009802  0.016301  0.172940 -0.273094 0 0 0 0
1410026500 -0.010154  0.022226  0.172650 -0.272064 0 0 0 0
1425026250 -0.010154  0.024414  0.165809 -0.279712 0 0 0 0
1440026000 -0.008141  0.025817  0.166758 -0.280665 0 0 0 0
1455025750 -0.007551  0.028251  0.165241 -0.279063 0 0 0 0
1470025500 -0.006059  0.029362  0.161573 -0.281176 0 0 0 0
1485025250 -0.000703  0.030594  0.156990 -0.285841 0 0 0 0
1500025000 -0.000422  0.030073  0.154702 -0.285308 0 0 0 0
1515024750  0.000561  0.029996  0.150505 -0.286721 0 0 0 0
1530024500  0.004174  0.030703  0.149809 -0.287192 0 0 0 0
1545024250  0.007780  0.027779  0.144222 -0.289787 0 0 0 0
1560024000  0.007562  0.026155  0.146010 -0.292926 0 0 0 0
1575023750  0.008803  0.023502  0.138811 -0.293437 0 0 0 0
1590023500  0.009804  0.022397  0.141136 -0.294476 0 0 0 0
1605023250  0.010930  0.021514  0.136122 -0.295718 0 0 0 0
1620023000  0.011402  0.017220  0.132418 -0.300159 0 0 0 0
1635022750  0.008663  0.014322  0.129451 -0.300777 0 0 0 0
1650022500  0.008284  0.011495  0.122961 -0.300925 0 0 0 0
1665022250  0.006676  0.010291  0.123060 -0.304026 0 0 0 0
1680022000  0.003585  0.008383  0.122320 -0.304065 0 0 0 0
1695021750  0.002156  0.009126  0.117714 -0.308478 0 0 0 0
1710021500 -0.001755  0.009187  0.114401 -0.308923 0 0 0 0
1725021250 -0.004260  0.010483  0.108556 -0.309732 0 0 0 0
1740021000 -0.006976  0.007925  0.101935 -0.312528 0 0 0 0
1755020750 -0.009552  0.010802  0.099315 -0.311526 0 0 0 0
1770020500 -0.010237  0.012533  0.095693 -0.313086 0 0 0 0
1785020250 -0.009836  0.017193  0.092608 -0.313738 0 0 0 0
1800020000 -0.013558  0.018833  0.089332 -0.313307 0 0 0 0
1815019750 -0.013786  0.020335  0.083740 -0.314902 0 0 0 0
1830019500 -0.013298  0.027949  0.080903 -0.318517 0 0 0 0
1845019250 -0.012347  0.025658  0.077067 -0.316500 0 0 0 0
1860019000 -0.012402  0.032048  0.074314 -0.313785 0 0 0 0
1875018750 -0.008857  0.032448  0.075969 -0.313520 0 0 0 0
1890018500 -0.006345  0.033633  0.067659 -0.312404 0 0 0 0
1905018250 -0.005477  0.035215  0.065471 -0.314792 0 0 0 0
1920018000 -0.000686  0.037380  0.063068 -0.315945 0 0 0 0
1935017750  0.000369  0.035220  0.061053 -0.315754 0 0 0 0
1950017500  0.003651  0.037269  0.058307 -0.318871 0 0 0 0
1965017250  0.010623  0.032410  0.056109 -0.317691 0 0 0 0
1980017000  0.010568  0.034454  0.052028 -0.318579 0 0 0 0
1995016750  0.012550  0.033900  0.050124 -0.316715 0 0 0 0
2010016500  0.014662  0.031480  0.049777 -0.317305 0 0 0 0
2025016250  0.015589  0.028164  0.040001 -0.321207 0 0 0 0
2040016000  0.013896  0.021142  0.043382 -0.319157 0 0 0 0
2055015750  0.018258  0.019848  0.041638 -0.321490 0 0 0 0
2070015500  0.017525  0.017475  0.038016 -0.325085 0 0 0 0
2085015250  0.014998  0.011484  0.028675 -0.322678 0 0 0 0
2100015000  0.010656  0.011181  0.026881 -0.324834 0 0 0 0
2115014750  0.010645  0.011733  0.023386 -0.326975 0 0 0 0
2130014500  0.007109  0.009467  0.024194 -0.328292 0 0 0 0
2145014250  0.001660  0.011912  0.017573 -0.333180 0 0 0 0
2160014000 -0.003768  0.009976  0.013198 -0.329058 0 0 0 0
2175013750 -0.005464  0.011684  0.006971 -0.331767 0 0 0 0
2190013500 -0.009594  0.015087  0.004001 -0.328804 0 0 0 0
2205013250 -0.013536  0.018243 -0.000506 -0.329298 0 0 0 0
2220013000 -0.012692  0.018027 -0.005537 -0.328272 0 0 0 0
2235012750 -0.014109  0.026144 -0.013077 -0.327017 0 0 0 0
2250012500 -0.014923  0.027544 -0.015054 -0.327903 0 0 0 0
2265012250 -0.014663  0.031543 -0.021237 -0.326454 0 0 0 0
2280012000 -0.023397  0.041454 -0.009412 -0.313242 0 0 0 0
2295011750 -0.008719  0.043199 -0.031148 -0.319656 0 0 0 0
2310011500 -0.004173  0.048570 -0.034237 -0.318772 0 0 0 0
2325011250 -0.003708  0.049130 -0.030647 -0.314409 0 0 0 0
2340011000  0.006991  0.050509 -0.032765 -0.313620 0 0 0 0
2355010750  0.006349  0.054146 -0.032023 -0.313461 0 0 0 0
2370010500  0.010411  0.054377 -0.033752 -0.310351 0 0 0 0
2385010250  0.007149  0.051085 -0.030843 -0.311403 0 0 0 0
2400010000  0.015844  0.048686 -0.039478 -0.311817 0 0 0 0
2415009750  0.015161  0.054395 -0.042142 -0.309459 0 0 0 0
2430009500  0.025342  0.041287 -0.043044 -0.312105 0 0 0 0
2445009250  0.020381  0.039552 -0.047377 -0.314700 0 0 0 0
2460009000  0.025805  0.034961 -0.048208 -0.317210 0 0 0 0
2475008750  0.023964  0.029325 -0.053330 -0.318076 0 0 0 0
2490008500  0.024176  0.025511 -0.054251 -0.323310 0 0 0 0
2505008250  0.020744  0.021345 -0.059806 -0.312453 0 0 0 0
2520008000  0.020851  0.020138 -0.064235 -0.313421 0 0 0 0
2535007750  0.020340  0.016234 -0.064245 -0.313263 0 0 0 0
2550007500  0.018045  0.014503 -0.078639 -0.308511 0 0 0 0
2565007250  0.009418  0.014806 -0.077489 -0.308823 0 0 0 0
2580007000  0.004769  0.013614 -0.091780 -0.302926 0 0 0 0
2595006750  0.005176  0.023005 -0.094925 -0.305411 0 0 0 0
2610006500 -0.006683  0.017733 -0.091743 -0.302340 0 0 0 0
2625006250 -0.008856  0.027216 -0.099034 -0.301752 0 0 0 0
2640006000 -0.009293  0.026763 -0.102181 -0.299641 0 0 0 0
2655005750 -0.017146  0.031907 -0.105210 -0.294515 0 0 0 0
2670005500 -0.011533  0.037246 -0.109765 -0.293493 0 0 0 0
2685005250 -0.012384  0.042164 -0.109052 -0.291852 0 0 0 0
2700005000 -0.017720  0.044122 -0.106517 -0.288229 0 0 0 0
2715004750 -0.009354  0.048529 -0.105283 -0.285954 0 0 0 0
2730004500 -0.007721  0.051579 -0.110715 -0.283286 0 0 0 0
2745004250 -0.000277  0.052481 -0.114641 -0.280694 0 0 0 0
2760004000 -0.003881  0.050605 -0.117310 -0.277137 0 0 0 0
2775003750  0.001907  0.063035 -0.122298 -0.283799 0 0 0 0
2790003500  0.026897  0.069817 -0.131629 -0.280677 0 0 0 0
2805003250  0.006557  0.059752 -0.130422 -0.279465 0 0 0 0
2820003000  0.021338  0.070510 -0.123264 -0.281286 0 0 0 0
2835002750  0.012307  0.064985 -0.132352 -0.280066 0 0 0 0
2850002500  0.030363  0.056343 -0.137504 -0.277153 0 0 0 0
2865002250  0.025186  0.055660 -0.140549 -0.278497 0 0 0 0
2880002000  0.034478  0.047652 -0.141980 -0.274846 0 0 0 0
2895001750  0.038658  0.041138 -0.149647 -0.271907 0 0 0 0
2910001500  0.040596  0.050315 -0.147830 -0.277293 0 0 0 0
2925001250  0.041167  0.032651 -0.147090 -0.272988 0 0 0 0
2940001000  0.039586  0.036071 -0.153246 -0.274032 0 0 0 0
2955000750  0.038300  0.023433 -0.156460 -0.268572 0 0 0 0
2970000500  0.024320  0.021841 -0.154162 -0.273229 0 0 0 0
2985000250  0.028141  0.023514 -0.161673 -0.267064 0 0 0 0
3000000000  0.018088  0.009302 -0.163918 -0.263128 0 0 0 0
