!File created by NanoVNA-F V2
# Hz S RI R 50
     50000 -0.004696 -0.006126  0.331667 -0.002022 0 0 0 0
  15049750 -0.003733 -0.000545  0.325883 -0.004934 0 0 0 0
  30049500 -0.003137 -0.001368  0.325478 -0.009167 0 0 0 0
  45049250 -0.005114  0.001364  0.325597 -0.012828 0 0 0 0
  60049000 -0.003483 -0.000780  0.326006 -0.016175 0 0 0 0
  75048750 -0.003251 -0.000312  0.326533 -0.020227 0 0 0 0
  90048500 -0.005486 -0.000671  0.325170 -0.023803 0 0 0 0
 105048250 -0.005226  0.000745  0.325405 -0.028561 0 0 0 0
 120048000 -0.005725  0.001520  0.324922 -0.031470 0 0 0 0
 135047750 -0.006002  0.003163  0.331978 -0.037607 0 0 0 0
 150047500 -0.006072  0.003641  0.332450 -0.041266 0 0 0 0
 165047250 -0.005146  0.003535  0.331139 -0.044505 0 0 0 0
 180047000 -0.005118  0.004401  0.328772 -0.047701 0 0 0 0
 195046750 -0.004507  0.004447  0.327698 -0.050685 0 0 0 0
 210046500 -0.004288  0.005000  0.326903 -0.053727 0 0 0 0
 225046250 -0.002534  0.005056  0.326140 -0.057176 0 0 0 0
 240046000 -0.002725  0.004086  0.323714 -0.059354 0 0 0 0
 255045750 -0.002229  0.004851  0.324478 -0.062493 0 0 0 0
 270045500 -0.002917  0.003863  0.322763 -0.067054 0 0 0 0
 285045250 -0.003379  0.004084  0.321981 -0.069986 0 0 0 0
 300045000 -0.003247  0.003782  0.320672 -0.074361 0 0 0 0
 315044750 -0.003982  0.004003  0.319344 -0.077822 0 0 0 0
 330044500 -0.004537  0.004683  0.317472 -0.080841 0 0 0 0
 345044250 -0.005026  0.005810  0.316748 -0.085217 0 0 0 0
 360044000 -0.004039  0.005220  0.314393 -0.088695 0 0 0 0
 375043750 -0.005036  0.006439  0.311887 -0.091632 0 0 0 0
 390043500 -0.003945  0.006778  0.311266 -0.093770 0 0 0 0
 405043250 -0.003267  0.008286  0.309210 -0.097252 0 0 0 0
 420043000 -0.003819  0.007829  0.308408 -0.100488 0 0 0 0
 435042750 -0.002913  0.008694  0.307540 -0.102003 0 0 0 0
 450042500 -0.001809  0.008643  0.306679 -0.104737 0 0 0 0
 465042250 -0.002362  0.007714  0.305835 -0.108814 0 0 0 0
 480042000  0.000016  0.008432  0.305803 -0.111418 0 0 0 0
 495041750 -0.000277  0.006413  0.304968 -0.115226 0 0 0 0
 510041500  0.000505  0.006439  0.303593 -0.119114 0 0 0 0
 525041250 -0.001256  0.006147  0.303009 -0.121809 0 0 0 0
 540041000 -0.002444  0.005677  0.301399 -0.126022 0 0 0 0
 555040750 -0.002405  0.004277  0.299684 -0.128632 0 0 0 0
 570040500 -0.002916  0.004519  0.298170 -0.132202 0 0 0 0
 585040250 -0.004593  0.005465  0.295050 -0.136565 0 0 0 0
 600040000 -0.005067  0.006293  0.293813 -0.138635 0 0 0 0
 615039750 -0.006428  0.006641  0.292290 -0.143997 0 0 0 0
 630039500 -0.006391  0.008155  0.291742 -0.145951 0 0 0 0
 645039250 -0.006618  0.008967  0.289097 -0.148225 0 0 0 0
 660039000 -0.005245  0.010039  0.286170 -0.151060 0 0 0 0
 675038750 -0.004731  0.011021  0.285974 -0.153439 0 0 0 0
 690038500 -0.003671  0.011509  0.283438 -0.156679 0 0 0 0
 705038250 -0.002940  0.012232  0.282536 -0.160103 0 0 0 0
 720038000 -0.002368  0.012428  0.281988 -0.161137 0 0 0 0
 735037750 -0.000838  0.010775  0.281092 -0.164734 0 0 0 0
 750037500  0.001675  0.010570  0.278884 -0.168645 0 0 0 0
 765037250  0.002820  0.009980  0.277287 -0.170669 0 0 0 0
 780037000  0.001262  0.008352  0.276462 -0.173892 0 0 0 0
 795036750  0.002180  0.006723  0.274423 -0.178101 0 0 0 0
 810036500  0.000461  0.006337  0.271017 -0.181483 0 0 0 0
 825036250 -0.000095  0.006216  0.270803 -0.183769 0 0 0 0
 840036000 -0.002188  0.005641  0.267909 -0.186731 0 0 0 0
 855035750 -0.003114  0.006611  0.267214 -0.189300 0 0 0 0
 870035500 -0.005824  0.006525  0.263465 -0.194027 0 0 0 0
 885035250 -0.007093  0.008186  0.260472 -0.196026 0 0 0 0
 900035000 -0.007356  0.010568  0.258227 -0.198431 0 0 0 0
 915034750 -0.006905  0.011886  0.254612 -0.201241 0 0 0 0
 930034500 -0.006297  0.014247  0.253779 -0.204257 0 0 0 0
 945034250 -0.005769  0.015153  0.251313 -0.205744 0 0 0 0
 960034000 -0.004001  0.015750  0.249032 -0.206876 0 0 0 0
 975033750 -0.001274  0.016933  0.247503 -0.209193 0 0 0 0
 990033500  0.000275  0.017975  0.244999 -0.211469 0 0 0 0
1005033250  0.002549  0.016236  0.244264 -0.213056 0 0 0 0
1020033000  0.004616  0.015603  0.242371 -0.215533 0 0 0 0
1035032750  0.005775  0.013301  0.241417 -0.218871 0 0 0 0
1050032500  0.006029  0.011626  0.239434 -0.221590 0 0 0 0
1065032250  0.005350  0.010509  0.238122 -0.226206 0 0 0 0
1080032000  0.002787  0.007511  0.235533 -0.228846 0 0 0 0
1095031750  0.002828  0.007301  0.231536 -0.231432 0 0 0 0
1110031500 -0.001000  0.004580  0.227426 -0.235309 0 0 0 0
1125031250 -0.002955  0.005695  0.225553 -0.238284 0 0 0 0
1140031000 -0.004838  0.005243  0.222402 -0.242473 0 0 0 0
1155030750 -0.007794  0.008075  0.220495 -0.242012 0 0 0 0
1170030500 -0.010591  0.012068  0.215281 -0.242672 0 0 0 0
1185030250 -0.009260  0.013010  0.211479 -0.246008 0 0 0 0
1200030000 -0.010063  0.017049  0.208245 -0.245356 0 0 0 0
1215029750 -0.007716  0.019713  0.205866 -0.247624 0 0 0 0
1230029500 -0.006982  0.022120  0.207239 -0.246289 0 0 0 0
1245029250 -0.003099  0.024625  0.203085 -0.248431 0 0 0 0
1260029000 -0.001903  0.023510  0.199865 -0.253651 0 0 0 0
1275028750  0.002328  0.020880  0.200659 -0.255119 0 0 0 0
1290028500  0.005408  0.022760  0.199542 -0.258080 0 0 0 0
1305028250  0.006939  0.021273  0.198118 -0.260433 0 0 0 0
1320028000  0.007933  0.018933  0.194499 -0.262013 0 0 0 0
1335027750  0.009236  0.013529  0.187617 -0.267237 0 0 0 0
1350027500  0.010767  0.010671  0.187547 -0.269957 0 0 0 0
1365027250  0.006186  0.009843  0.185683 -0.272991 0 0 0 0
1380027000  0.005882  0.006930  0.179628 -0.274807 0 0 0 0
1395026750  0.000324  0.004889  0.180245 -0.276554 0 0 0 0
1410026500 -0.000887  0.003302  0.174706 -0.277597 0 0 0 0
1425026250 -0.005768  0.009562  0.169416 -0.279705 0 0 0 0
1440026000 -0.008804  0.008656  0.166818 -0.282239 0 0 0 0
1455025750 -0.011631  0.012199  0.161947 -0.283329 0 0 0 0
1470025500 -0.011752  0.017798  0.157515 -0.281993 0 0 0 0
1485025250 -0.008379  0.021294  0.157820 -0.282882 0 0 0 0
1500025000 -0.010389  0.025315  0.153363 -0.286457 0 0 0 0
1515024750 -0.008989  0.027052  0.151827 -0.286366 0 0 0 0
1530024500 -0.005994  0.030412  0.151622 -0.287238 0 0 0 0
1545024250  0.000092  0.028856  0.145225 -0.287695 0 0 0 0
1560024000  0.003047  0.027686  0.141445 -0.292035 0 0 0 0
1575023750  0.005727  0.026887  0.141426 -0.290326 0 0 0 0
1590023500  0.008484  0.024641  0.138795 -0.292427 0 0 0 0
1605023250  0.012550  0.022427  0.137762 -0.296166 0 0 0 0
1620023000  0.011314  0.016996  0.130069 -0.298849 0 0 0 0
1635022750  0.011396  0.012723  0.132693 -0.300765 0 0 0 0
1650022500  0.008713  0.010655  0.127342 -0.303093 0 0 0 0
1665022250  0.006439  0.004567  0.124631 -0.302415 0 0 0 0
1680022000 -0.000038  0.004261  0.119362 -0.304415 0 0 0 0
1695021750 -0.000739  0.004305  0.112006 -0.307951 0 0 0 0
1710021500 -0.005160  0.008592  0.113202 -0.308677 0 0 0 0
1725021250 -0.008875  0.012899  0.107004 -0.309539 0 0 0 0
1740021000 -0.014535  0.010843  0.101425 -0.313549 0 0 0 0
1755020750 -0.013908  0.015405  0.099450 -0.308276 0 0 0 0
1770020500 -0.012736  0.020666  0.093438 -0.308846 0 0 0 0
1785020250 -0.008252  0.026751  0.090424 -0.309453 0 0 0 0
1800020000 -0.007020  0.029905  0.088587 -0.307224 0 0 0 0
1815019750 -0.005234  0.030956  0.083410 -0.309943 0 0 0 0
1830019500 -0.001091  0.032798  0.085747 -0.308311 0 0 0 0
1845019250  0.004240  0.032033  0.084936 -0.313999 0 0 0 0
1860019000  0.009459  0.031555  0.077687 -0.312527 0 0 0 0
1875018750  0.010973  0.025793  0.076068 -0.313645 0 0 0 0
1890018500  0.013955  0.023277  0.071762 -0.313474 0 0 0 0
1905018250  0.012496  0.016663  0.069174 -0.314869 0 0 0 0
1920018000  0.013720  0.011984  0.066860 -0.320856 0 0 0 0
1935017750  0.010776  0.008103  0.062774 -0.321310 0 0 0 0
1950017500  0.007516  0.006311  0.060646 -0.320918 0 0 0 0
1965017250  0.000657  0.001911  0.057514 -0.320117 0 0 0 0
1980017000 -0.003551  0.006171  0.048948 -0.325832 0 0 0 0
1995016750 -0.006370  0.011419  0.045473 -0.323155 0 0 0 0
2010016500 -0.014162  0.013248  0.042836 -0.321823 0 0 0 0
2025016250 -0.014812  0.014367  0.035527 -0.323086 0 0 0 0
2040016000 -0.017268  0.018673  0.031492 -0.320524 0 0 0 0
2055015750 -0.012571  0.023511  0.027956 -0.323673 0 0 0 0
2070015500 -0.013765  0.027004  0.026280 -0.323326 0 0 0 0
2085015250 -0.009159  0.034706  0.025060 -0.321635 0 0 0 0
2100015000 -0.006973  0.033990  0.017504 -0.322286 0 0 0 0
2115014750  0.002773  0.036676  0.016048 -0.317250 0 0 0 0
2130014500  0.006521  0.035003  0.016306 -0.316130 0 0 0 0
2145014250  0.012394  0.031433  0.012577 -0.318968 0 0 0 0
2160014000  0.015056  0.030649  0.013974 -0.317859 0 0 0 0
2175013750  0.020056  0.023993  0.012364 -0.321796 0 0 0 0
2190013500  0.019046  0.021445  0.007829 -0.328106 0 0 0 0
2205013250  0.014548  0.016915  0.004114 -0.324448 0 0 0 0
2220013000  0.009586  0.013425  0.001779 -0.326164 0 0 0 0
2235012750  0.008570  0.009003 -0.002400 -0.327223 0 0 0 0
2250012500  0.003686  0.005521 -0.006649 -0.328329 0 0 0 0
2265012250 -0.002775  0.007139 -0.013758 -0.331460 0 0 0 0
2280012000 -0.019390  0.006554  0.010679 -0.329422 0 0 0 0
2295011750 -0.010923  0.013526 -0.024916 -0.331320 0 0 0 0
2310011500 -0.014785  0.018818 -0.029513 -0.326697 0 0 0 0
2325011250 -0.015536  0.025656 -0.037847 -0.324071 0 0 0 0
2340011000 -0.014471  0.028903 -0.040659 -0.321807 0 0 0 0
2355010750 -0.013800  0.036211 -0.042064 -0.317513 0 0 0 0
2370010500 -0.013266  0.043866 -0.039229 -0.315869 0 0 0 0
2385010250 -0.008391  0.045198 -0.037062 -0.311009 0 0 0 0
2400010000 -0.000628  0.046597 -0.037756 -0.315858 0 0 0 0
2415009750 -0.001735  0.048613 -0.044169 -0.309361 0 0 0 0
2430009500  0.010423  0.042435 -0.050333 -0.306928 0 0 0 0
2445009250  0.012787  0.041417 -0.046636 -0.314516 0 0 0 0
2460009000  0.017760  0.036491 -0.050803 -0.311995 0 0 0 0
2475008750  0.011394  0.032225 -0.051226 -0.316539 0 0 0 0
2490008500  0.016712  0.021780 -0.060966 -0.319153 0 0 0 0
2505008250  0.008824  0.014600 -0.057171 -0.312993 0 0 0 0
2520008000  0.005398  0.014963 -0.065210 -0.310416 0 0 0 0
2535007750  0.002058  0.018477 -0.072877 -0.304954 0 0 0 0
2550007500  0.001817  0.012461 -0.076158 -0.306838 0 0 0 0
2565007250 -0.005500  0.017917 -0.088259 -0.294580 0 0 0 0
2580007000 -0.013271  0.022643 -0.089331 -0.303386 0 0 0 0
2595006750 -0.013379  0.034710 -0.094080 -0.297764 0 0 0 0
2610006500 -0.021233  0.035720 -0.098881 -0.294815 0 0 0 0
2625006250 -0.024404  0.048242 -0.094525 -0.292503 0 0 0 0
2640006000 -0.012417  0.054550 -0.099860 -0.292027 0 0 0 0
2655005750 -0.011249  0.050713 -0.097848 -0.289689 0 0 0 0
2670005500 -0.002316  0.055660 -0.101737 -0.285720 0 0 0 0
2685005250  0.001932  0.065425 -0.104604 -0.285828 0 0 0 0
2700005000  0.004155  0.059997 -0.107062 -0.283962 0 0 0 0
2715004750  0.011268  0.057872 -0.106049 -0.293695 0 0 0 0
2730004500  0.016025  0.053265 -0.113910 -0.295384 0 0 0 0
2745004250  0.023996  0.040894 -0.118830 -0.292955 0 0 0 0
2760004000  0.022489  0.041081 -0.122065 -0.294399 0 0 0 0
2775003750  0.023723  0.037557 -0.123495 -0.293140 0 0 0 0
2790003500  0.017611  0.035665 -0.129146 -0.288336 0 0 0 0
2805003250  0.006684  0.030080 -0.126980 -0.286005 0 0 0 0
2820003000  0.004593  0.038981 -0.135264 -0.278812 0 0 0 0
2835002750 -0.007651  0.035810 -0.134814 -0.283260 0 0 0 0
2850002500  0.002513  0.041323 -0.143477 -0.284120 0 0 0 0
2865002250 -0.008822  0.040604 -0.138763 -0.276968 0 0 0 0
2880002000 -0.011452  0.047757 -0.147586 -0.277235 0 0 0 0
2895001750 -0.012650  0.049195 -0.150070 -0.272516 0 0 0 0
2910001500 -0.001505  0.062364 -0.147678 -0.268208 0 0 0 0
2925001250 -0.006512  0.065498 -0.154508 -0.267034 0 0 0 0
2940001000  0.000904  0.079167 -0.155721 -0.264017 0 0 0 0
2955000750  0.010650  0.078523 -0.163629 -0.263003 0 0 0 0
2970000500  0.012495  0.075558 -0.156053 -0.263448 0 0 0 0
2985000250  0.011416  0.067721 -0.165638 -0.262965 0 0 0 0
3000000000  0.032673  0.065074 -0.164183 -0.261770 0 0 0 0
