!File created by NanoVNA-F V2
# Hz S RI R 50
     50000 -0.014955 -0.006356  0.319744  0.000307 0 0 0 0
  15049750 -0.012898 -0.000835  0.319506 -0.005605 0 0 0 0
  30049500 -0.013346  0.000195  0.320302 -0.008839 0 0 0 0
  45049250 -0.014308  0.002061  0.319755 -0.012867 0 0 0 0
  60049000 -0.013188  0.001518  0.320309 -0.015375 0 0 0 0
  75048750 -0.012450  0.000477  0.320824 -0.018842 0 0 0 0
  90048500 -0.015502  0.001426  0.321204 -0.023271 0 0 0 0
 105048250 -0.014232  0.001535  0.320442 -0.027230 0 0 0 0
 120048000 -0.014433  0.003333  0.319794 -0.031424 0 0 0 0
 135047750 -0.016513  0.003734  0.327277 -0.037045 0 0 0 0
 150047500 -0.016026  0.004886  0.327940 -0.040162 0 0 0 0
 165047250 -0.015187  0.003919  0.326224 -0.044028 0 0 0 0
 180047000 -0.014976  0.004553  0.323910 -0.046664 0 0 0 0
 195046750 -0.014310  0.005413  0.322738 -0.049714 0 0 0 0
 210046500 -0.014460  0.006039  0.322101 -0.052438 0 0 0 0
 225046250 -0.013098  0.007072  0.320797 -0.056251 0 0 0 0
 240046000 -0.012570  0.006451  0.318802 -0.058002 0 0 0 0
 255045750 -0.011776  0.007081  0.319396 -0.061259 0 0 0 0
 270045500 -0.012965  0.006249  0.318073 -0.065733 0 0 0 0
 285045250 -0.013666  0.005681  0.317755 -0.068765 0 0 0 0
 300045000 -0.014056  0.006032  0.315835 -0.072355 0 0 0 0
 315044750 -0.014421  0.006814  0.315567 -0.076398 0 0 0 0
 330044500 -0.014113  0.007613  0.313367 -0.079337 0 0 0 0
 345044250 -0.014975  0.008701  0.312653 -0.083256 0 0 0 0
 360044000 -0.014956  0.009000  0.310392 -0.086778 0 0 0 0
 375043750 -0.015126  0.010134  0.308292 -0.089321 0 0 0 0
 390043500 -0.014975  0.011003  0.306892 -0.092180 0 0 0 0
 405043250 -0.013962  0.012216  0.305010 -0.095612 0 0 0 0
 420043000 -0.014953  0.011320  0.303612 -0.099305 0 0 0 0
 435042750 -0.013572  0.012944  0.302998 -0.101392 0 0 0 0
 450042500 -0.013739  0.013286  0.303201 -0.103483 0 0 0 0
 465042250 -0.012573  0.012611  0.301846 -0.106864 0 0 0 0
 480042000 -0.011827  0.012976  0.301233 -0.110353 0 0 0 0
 495041750 -0.012188  0.013189  0.300562 -0.113793 0 0 0 0
 510041500 -0.011649  0.011699  0.299022 -0.117741 0 0 0 0
 525041250 -0.011987  0.012424  0.298737 -0.120169 0 0 0 0
 540041000 -0.014290  0.010937  0.296777 -0.124467 0 0 0 0
 555040750 -0.014159  0.011074  0.295653 -0.127326 0 0 0 0
 570040500 -0.015027  0.010752  0.294120 -0.130579 0 0 0 0
 585040250 -0.016583  0.012031  0.291691 -0.135212 0 0 0 0
 600040000 -0.017713  0.013047  0.289685 -0.137752 0 0 0 0
 615039750 -0.017800  0.013157  0.288584 -0.141579 0 0 0 0
 630039500 -0.017901  0.014689  0.287722 -0.143765 0 0 0 0
 645039250 -0.017165  0.016389  0.285475 -0.146194 0 0 0 0
 660039000 -0.018486  0.017401  0.282565 -0.149149 0 0 0 0
 675038750 -0.016005  0.017090  0.282206 -0.151803 0 0 0 0
 690038500 -0.016096  0.018655  0.280978 -0.155613 0 0 0 0
 705038250 -0.013261  0.019598  0.279331 -0.156841 0 0 0 0
 720038000 -0.011965  0.019605  0.277648 -0.160823 0 0 0 0
 735037750 -0.010977  0.018055  0.276326 -0.163697 0 0 0 0
 750037500 -0.009894  0.017716  0.274036 -0.166242 0 0 0 0
 765037250 -0.009441  0.017846  0.272929 -0.168304 0 0 0 0
 780037000 -0.009794  0.016587  0.271852 -0.170908 0 0 0 0
 795036750 -0.009016  0.014589  0.270455 -0.174817 0 0 0 0
 810036500 -0.010366  0.014518  0.267960 -0.178274 0 0 0 0
 825036250 -0.011955  0.013970  0.266699 -0.181763 0 0 0 0
 840036000 -0.012486  0.013761  0.264938 -0.184658 0 0 0 0
 855035750 -0.014880  0.015100  0.264412 -0.187584 0 0 0 0
 870035500 -0.016054  0.015166  0.260078 -0.191785 0 0 0 0
 885035250 -0.017691  0.016723  0.256536 -0.194146 0 0 0 0
 900035000 -0.018225  0.018416  0.255852 -0.196829 0 0 0 0
 915034750 -0.018737  0.020657  0.251525 -0.198775 0 0 0 0
 930034500 -0.017627  0.023442  0.250471 -0.201434 0 0 0 0
 945034250 -0.015759  0.024356  0.247528 -0.203385 0 0 0 0
 960034000 -0.015729  0.024755  0.245377 -0.203562 0 0 0 0
 975033750 -0.012708  0.026670  0.244004 -0.205782 0 0 0 0
 990033500 -0.011544  0.027678  0.241936 -0.208347 0 0 0 0
1005033250 -0.008237  0.025495  0.239931 -0.211458 0 0 0 0
1020033000 -0.007627  0.025315  0.239189 -0.212780 0 0 0 0
1035032750 -0.005538  0.025200  0.237563 -0.217037 0 0 0 0
1050032500 -0.005690  0.023542  0.235220 -0.218837 0 0 0 0
1065032250 -0.006482  0.020116  0.234018 -0.222371 0 0 0 0
1080032000 -0.009185  0.017215  0.231091 -0.227647 0 0 0 0
1095031750 -0.009863  0.018000  0.228221 -0.228742 0 0 0 0
1110031500 -0.011985  0.015832  0.224059 -0.232880 0 0 0 0
1125031250 -0.016432  0.018766  0.221956 -0.234516 0 0 0 0
1140031000 -0.017081  0.017753  0.218608 -0.240514 0 0 0 0
1155030750 -0.020692  0.020876  0.214320 -0.239377 0 0 0 0
1170030500 -0.023023  0.023129  0.211445 -0.239090 0 0 0 0
1185030250 -0.022986  0.026469  0.210252 -0.243201 0 0 0 0
1200030000 -0.021592  0.029057  0.204581 -0.243229 0 0 0 0
1215029750 -0.021520  0.032286  0.201846 -0.245868 0 0 0 0
1230029500 -0.018887  0.034100  0.201226 -0.244353 0 0 0 0
1245029250 -0.016506  0.035670  0.197659 -0.248157 0 0 0 0
1260029000 -0.012370  0.037338  0.197476 -0.251164 0 0 0 0
1275028750 -0.007837  0.034145  0.194874 -0.252708 0 0 0 0
1290028500 -0.005779  0.036053  0.195952 -0.254532 0 0 0 0
1305028250 -0.004530  0.034741  0.193387 -0.256744 0 0 0 0
1320028000 -0.005460  0.030082  0.188969 -0.260141 0 0 0 0
1335027750 -0.001309  0.027198  0.185429 -0.261529 0 0 0 0
1350027500 -0.001609  0.024324  0.181692 -0.268731 0 0 0 0
1365027250 -0.005561  0.023273  0.181110 -0.270319 0 0 0 0
1380027000 -0.008461  0.019062  0.175924 -0.266527 0 0 0 0
1395026750 -0.011215  0.018512  0.175466 -0.272224 0 0 0 0
1410026500 -0.011214  0.020241  0.170938 -0.274073 0 0 0 0
1425026250 -0.018924  0.023216  0.165664 -0.276601 0 0 0 0
1440026000 -0.020455  0.024798  0.162454 -0.279139 0 0 0 0
1455025750 -0.023597  0.026960  0.159866 -0.280347 0 0 0 0
1470025500 -0.023694  0.030542  0.155731 -0.276572 0 0 0 0
1485025250 -0.023047  0.036916  0.152968 -0.279666 0 0 0 0
1500025000 -0.022938  0.038151  0.150874 -0.281177 0 0 0 0
1515024750 -0.020715  0.042532  0.147499 -0.282860 0 0 0 0
1530024500 -0.017646  0.045477  0.147828 -0.282779 0 0 0 0
1545024250 -0.012638  0.044781  0.143761 -0.285396 0 0 0 0
1560024000 -0.010464  0.044545  0.141533 -0.285883 0 0 0 0
1575023750 -0.007026  0.042825  0.136441 -0.288043 0 0 0 0
1590023500 -0.005192  0.040824  0.133957 -0.288665 0 0 0 0
1605023250 -0.000886  0.038582  0.131022 -0.291756 0 0 0 0
1620023000 -0.003206  0.033092  0.126018 -0.294520 0 0 0 0
1635022750 -0.003791  0.028424  0.125075 -0.297193 0 0 0 0
1650022500 -0.004628  0.026411  0.124598 -0.296610 0 0 0 0
1665022250 -0.007178  0.023134  0.122149 -0.300205 0 0 0 0
1680022000 -0.012783  0.022529  0.116288 -0.297918 0 0 0 0
1695021750 -0.015339  0.021712  0.109455 -0.301750 0 0 0 0
1710021500 -0.020160  0.023907  0.108468 -0.302066 0 0 0 0
1725021250 -0.022220  0.027868  0.102335 -0.303690 0 0 0 0
1740021000 -0.027540  0.027735  0.099519 -0.307080 0 0 0 0
1755020750 -0.025702  0.032957  0.096211 -0.304134 0 0 0 0
1770020500 -0.026670  0.036641  0.095007 -0.303535 0 0 0 0
1785020250 -0.023936  0.043226  0.090237 -0.305899 0 0 0 0
1800020000 -0.019455  0.047024  0.087599 -0.304043 0 0 0 0
1815019750 -0.017770  0.046953  0.082562 -0.304738 0 0 0 0
1830019500 -0.014453  0.050281  0.084277 -0.303186 0 0 0 0
1845019250 -0.008603  0.048163  0.082428 -0.307313 0 0 0 0
1860019000 -0.003938  0.047830  0.073878 -0.308357 0 0 0 0
1875018750 -0.001303  0.042530  0.072939 -0.308748 0 0 0 0
1890018500  0.000151  0.039800  0.069544 -0.309314 0 0 0 0
1905018250 -0.001046  0.033968  0.069227 -0.312457 0 0 0 0
1920018000 -0.001429  0.031020  0.063789 -0.314556 0 0 0 0
1935017750 -0.002942  0.027043  0.060057 -0.313312 0 0 0 0
1950017500 -0.005816  0.026886  0.054239 -0.314942 0 0 0 0
1965017250 -0.011324  0.021900  0.054441 -0.316141 0 0 0 0
1980017000 -0.018593  0.025587  0.048582 -0.315750 0 0 0 0
1995016750 -0.020225  0.029457  0.044060 -0.317105 0 0 0 0
2010016500 -0.027440  0.033178  0.039069 -0.318013 0 0 0 0
2025016250 -0.029696  0.033263  0.037877 -0.317126 0 0 0 0
2040016000 -0.033050  0.038349  0.032472 -0.317473 0 0 0 0
2055015750 -0.029022  0.046151  0.029977 -0.318404 0 0 0 0
2070015500 -0.027578  0.047729  0.024736 -0.318536 0 0 0 0
2085015250 -0.024420  0.053708  0.023017 -0.316307 0 0 0 0
2100015000 -0.018947  0.051694  0.012019 -0.311838 0 0 0 0
2115014750 -0.012296  0.057513  0.014840 -0.316514 0 0 0 0
2130014500 -0.006218  0.055196  0.013420 -0.312904 0 0 0 0
2145014250 -0.002210  0.054587  0.010227 -0.313689 0 0 0 0
2160014000  0.000221  0.048885  0.011545 -0.313194 0 0 0 0
2175013750  0.000811  0.045552  0.007936 -0.315959 0 0 0 0
2190013500  0.001035  0.041910  0.007464 -0.320621 0 0 0 0
2205013250 -0.003659  0.036938  0.001777 -0.318622 0 0 0 0
2220013000 -0.003941  0.034051 -0.001559 -0.321556 0 0 0 0
2235012750 -0.010614  0.034232 -0.002519 -0.317937 0 0 0 0
2250012500 -0.012775  0.029576 -0.008516 -0.320911 0 0 0 0
2265012250 -0.019787  0.027356 -0.015529 -0.322522 0 0 0 0
2280012000 -0.034834  0.033588  0.008476 -0.329588 0 0 0 0
2295011750 -0.026544  0.037865 -0.026605 -0.321858 0 0 0 0
2310011500 -0.028679  0.043521 -0.030961 -0.320421 0 0 0 0
2325011250 -0.032172  0.049370 -0.036115 -0.320387 0 0 0 0
2340011000 -0.025019  0.058375 -0.039612 -0.314552 0 0 0 0
2355010750 -0.032890  0.060157 -0.039653 -0.312842 0 0 0 0
2370010500 -0.026005  0.069780 -0.038125 -0.309629 0 0 0 0
2385010250 -0.025830  0.066150 -0.039846 -0.303289 0 0 0 0
2400010000 -0.018569  0.070809 -0.037237 -0.307026 0 0 0 0
2415009750 -0.015251  0.074726 -0.045794 -0.306402 0 0 0 0
2430009500 -0.003158  0.072938 -0.046569 -0.304781 0 0 0 0
2445009250 -0.006622  0.068687 -0.047156 -0.308756 0 0 0 0
2460009000  0.003825  0.065006 -0.054959 -0.308727 0 0 0 0
2475008750 -0.002519  0.055053 -0.053167 -0.308115 0 0 0 0
2490008500  0.001172  0.050552 -0.058352 -0.305975 0 0 0 0
2505008250 -0.007110  0.046765 -0.061617 -0.304378 0 0 0 0
2520008000 -0.011865  0.040592 -0.063879 -0.301248 0 0 0 0
2535007750 -0.011398  0.040089 -0.072402 -0.299973 0 0 0 0
2550007500 -0.020950  0.041185 -0.080849 -0.296415 0 0 0 0
2565007250 -0.023975  0.047338 -0.083530 -0.293469 0 0 0 0
2580007000 -0.030735  0.056975 -0.087543 -0.295842 0 0 0 0
2595006750 -0.028482  0.067129 -0.092589 -0.290154 0 0 0 0
2610006500 -0.034659  0.066946 -0.098984 -0.288541 0 0 0 0
2625006250 -0.035634  0.078753 -0.092812 -0.288275 0 0 0 0
2640006000 -0.030196  0.085984 -0.096786 -0.286890 0 0 0 0
2655005750 -0.031349  0.085242 -0.096118 -0.286148 0 0 0 0
2670005500 -0.031643  0.084940 -0.096551 -0.282890 0 0 0 0
2685005250 -0.018789  0.095009 -0.104028 -0.281153 0 0 0 0
2700005000 -0.017033  0.090014 -0.101508 -0.281431 0 0 0 0
2715004750 -0.009723  0.084337 -0.106392 -0.290891 0 0 0 0
2730004500  0.000324  0.083475 -0.112499 -0.290146 0 0 0 0
2745004250 -0.000505  0.072582 -0.119267 -0.287356 0 0 0 0
2760004000 -0.002011  0.069857 -0.119406 -0.288154 0 0 0 0
2775003750 -0.003090  0.071665 -0.119982 -0.288732 0 0 0 0
2790003500 -0.006036  0.067343 -0.126505 -0.280967 0 0 0 0
2805003250 -0.021745  0.055255 -0.129955 -0.276338 0 0 0 0
2820003000 -0.016954  0.070136 -0.131943 -0.272008 0 0 0 0
2835002750 -0.026801  0.068507 -0.138841 -0.270121 0 0 0 0
2850002500 -0.023953  0.067228 -0.141873 -0.273350 0 0 0 0
2865002250 -0.030659  0.074920 -0.137278 -0.269969 0 0 0 0
2880002000 -0.032557  0.073515 -0.144760 -0.275261 0 0 0 0
2895001750 -0.032903  0.080204 -0.148767 -0.266926 0 0 0 0
2910001500 -0.030032  0.102995 -0.145161 -0.264289 0 0 0 0
2925001250 -0.020219  0.100462 -0.151123 -0.261768 0 0 0 0
2940001000 -0.019652  0.109303 -0.153868 -0.256380 0 0 0 0
2955000750 -0.016429  0.106998 -0.158693 -0.260462 0 0 0 0
2970000500 -0.008881  0.103100 -0.157974 -0.260851 0 0 0 0
2985000250 -0.006085  0.117441 -0.165990 -0.261311 0 0 0 0
3000000000  0.007251  0.100960 -0.161181 -0.256631 0 0 0 0
