!File created by NanoVNA-F V2
# Hz S RI R 50
     50000  0.017214  0.037617 -0.191634 -0.008453 0 0 0 0
    299750  0.019127  0.048381 -0.191426  0.001447 0 0 0 0
    549500  0.017297  0.059822 -0.190557  0.003063 0 0 0 0
    799250  0.015940  0.071227 -0.190825  0.003928 0 0 0 0
   1049000  0.014601  0.081595 -0.190383  0.005092 0 0 0 0
   1298750  0.019401  0.092757 -0.190822  0.004536 0 0 0 0
   1548500  0.016191  0.110877 -0.191172  0.005744 0 0 0 0
   1798250  0.032120  0.108603 -0.190936  0.005957 0 0 0 0
   2048000  0.034094  0.107665 -0.191757  0.006597 0 0 0 0
   2297750  0.038778  0.100248 -0.190895  0.007769 0 0 0 0
   2547500  0.040340  0.096705 -0.191529  0.008010 0 0 0 0
   2797250  0.036088  0.090685 -0.191943  0.008708 0 0 0 0
   3047000  0.038387  0.086652 -0.192536  0.010741 0 0 0 0
   3296750  0.035863  0.087101 -0.191865  0.010942 0 0 0 0
   3546500  0.030462  0.086993 -0.191321  0.011377 0 0 0 0
   3796250  0.026472  0.087391 -0.190910  0.012359 0 0 0 0
   4046000  0.018723  0.085311 -0.190519  0.012395 0 0 0 0
   4295750  0.016835  0.087020 -0.190687  0.013395 0 0 0 0
   4545500  0.011134  0.084266 -0.190536  0.014445 0 0 0 0
   4795250  0.010915  0.085731 -0.190923  0.014966 0 0 0 0
   5045000  0.006060  0.085175 -0.190925  0.015095 0 0 0 0
   5294750  0.005356  0.087000 -0.190675  0.015374 0 0 0 0
   5544500  0.003554  0.085847 -0.190557  0.017216 0 0 0 0
   5794250  0.003976  0.087846 -0.190670  0.017232 0 0 0 0
   6044000  0.000695  0.087633 -0.190362  0.018440 0 0 0 0
   6293750 -0.001610  0.089954 -0.190513  0.018905 0 0 0 0
   6543500 -0.001497  0.088053 -0.190100  0.018543 0 0 0 0
   6793250 -0.005790  0.091039 -0.190271  0.019827 0 0 0 0
   7043000 -0.007072  0.089776 -0.189884  0.019488 0 0 0 0
   7292750 -0.009640  0.092661 -0.190085  0.020682 0 0 0 0
   7542500  0.040443 -0.002824 -0.189939  0.022954 0 0 0 0
   7792250  0.042926 -0.002165 -0.189677  0.023077 0 0 0 0
   8042000  0.044882  0.001153 -0.189911  0.023520 0 0 0 0
   8291750  0.045343  0.003145 -0.190096  0.024297 0 0 0 0
   8541500  0.049057  0.006298 -0.189483  0.023620 0 0 0 0
   8791250  0.047058  0.007424 -0.189599  0.024762 0 0 0 0
   9041000  0.049473  0.010950 -0.189486  0.025818 0 0 0 0
   9290750  0.049550  0.012165 -0.189515  0.025587 0 0 0 0
   9540500  0.051203  0.015146 -0.189348  0.025961 0 0 0 0
   9790250  0.050947  0.017601 -0.189060  0.027191 0 0 0 0
  10040000  0.050992  0.019618 -0.189036  0.027716 0 0 0 0
  10289750  0.051703  0.020938 -0.189238  0.028538 0 0 0 0
  10539500  0.051309  0.024072 -0.188811  0.029245 0 0 0 0
  10789250  0.054263  0.025627 -0.188690  0.029925 0 0 0 0
  11039000  0.052059  0.026355 -0.188835  0.029985 0 0 0 0
  11288750  0.050267  0.031054 -0.188906  0.030871 0 0 0 0
  11538500  0.051809  0.029794 -0.188374  0.031532 0 0 0 0
  11788250  0.052199  0.032080 -0.188528  0.032206 0 0 0 0
  12038000  0.050943  0.033868 -0.188634  0.032656 0 0 0 0
  12287750  0.050034  0.034421 -0.188708  0.033296 0 0 0 0
  12537500  0.049747  0.036672 -0.188111  0.034052 0 0 0 0
  12787250  0.046657  0.037012 -0.188146  0.034935 0 0 0 0
  13037000  0.049146  0.038185 -0.188092  0.035552 0 0 0 0
  13286750  0.048038  0.039818 -0.187721  0.036123 0 0 0 0
  13536500  0.047561  0.041351 -0.187537  0.036857 0 0 0 0
  13786250  0.047634  0.041217 -0.187534  0.037137 0 0 0 0
  14036000  0.046949  0.042989 -0.187452  0.037718 0 0 0 0
  14285750  0.046852  0.043719 -0.187271  0.038427 0 0 0 0
  14535500  0.046737  0.044281 -0.186817  0.039405 0 0 0 0
  14785250  0.044733  0.045603 -0.186987  0.039950 0 0 0 0
  15035000  0.044189  0.043465 -0.186625  0.040116 0 0 0 0
  15284750  0.046369  0.045584 -0.186352  0.041129 0 0 0 0
  15534500  0.046940  0.045973 -0.186400  0.041643 0 0 0 0
  15784250  0.047189  0.046742 -0.186771  0.041513 0 0 0 0
  16034000  0.048726  0.047673 -0.187029  0.042161 0 0 0 0
  16283750  0.047742  0.047015 -0.186096  0.043558 0 0 0 0
  16533500  0.049105  0.047807 -0.186576  0.043363 0 0 0 0
  16783250  0.050384  0.047746 -0.186467  0.044285 0 0 0 0
  17033000  0.051538  0.049334 -0.186396  0.045265 0 0 0 0
  17282750  0.052033  0.049170 -0.185978  0.045590 0 0 0 0
  17532500  0.053676  0.049510 -0.185110  0.046221 0 0 0 0
  17782250  0.053114  0.050170 -0.185126  0.047226 0 0 0 0
  18032000  0.055013  0.051414 -0.184948  0.047652 0 0 0 0
  18281750  0.054813  0.050321 -0.185096  0.048069 0 0 0 0
  18531500  0.055637  0.049858 -0.184984  0.048622 0 0 0 0
  18781250  0.056719  0.051704 -0.184427  0.049313 0 0 0 0
  19031000  0.058162  0.052324 -0.184530  0.051026 0 0 0 0
  19280750  0.058479  0.053515 -0.184203  0.050305 0 0 0 0
  19530500  0.059109  0.052908 -0.184273  0.051434 0 0 0 0
  19780250  0.060794  0.053264 -0.184193  0.051748 0 0 0 0
  20030000  0.060518  0.054304 -0.184006  0.052046 0 0 0 0
  20279750  0.062209  0.053392 -0.183643  0.053052 0 0 0 0
  20529500  0.061852  0.054030 -0.183393  0.053498 0 0 0 0
  20779250  0.064427  0.053182 -0.182890  0.054002 0 0 0 0
  21029000  0.065592  0.053659 -0.183513  0.054555 0 0 0 0
  21278750  0.064660  0.054952 -0.182834  0.055416 0 0 0 0
  21528500  0.066362  0.055919 -0.183373  0.056691 0 0 0 0
  21778250  0.067162  0.055567 -0.182627  0.056725 0 0 0 0
  22028000  0.068327  0.055640 -0.182608  0.057595 0 0 0 0
  22277750  0.067926  0.055960 -0.182766  0.058475 0 0 0 0
  22527500  0.069416  0.056179 -0.182121  0.058646 0 0 0 0
  22777250  0.071957  0.056585 -0.182793  0.059181 0 0 0 0
  23027000  0.072160  0.056860 -0.181997  0.059895 0 0 0 0
  23276750  0.072536  0.056016 -0.181467  0.060216 0 0 0 0
  23526500  0.072431  0.056845 -0.181175  0.060618 0 0 0 0
  23776250  0.074399  0.057881 -0.181806  0.061136 0 0 0 0
  24026000  0.075777  0.057273 -0.181355  0.062389 0 0 0 0
  24275750  0.075432  0.056608 -0.180818  0.063109 0 0 0 0
  24525500  0.077352  0.057363 -0.180944  0.063432 0 0 0 0
  24775250  0.078611  0.057364 -0.180809  0.064505 0 0 0 0
  25025000  0.078692  0.056931 -0.180309  0.064649 0 0 0 0
  25274750  0.080407  0.057973 -0.179986  0.065354 0 0 0 0
  25524500  0.082213  0.057642 -0.179719  0.066089 0 0 0 0
  25774250  0.082473  0.057510 -0.180379  0.066604 0 0 0 0
  26024000  0.083845  0.058450 -0.179595  0.067405 0 0 0 0
  26273750  0.085268  0.058867 -0.179582  0.067776 0 0 0 0
  26523500  0.085449  0.058679 -0.178722  0.068716 0 0 0 0
  26773250  0.087241  0.058086 -0.178664  0.069462 0 0 0 0
  27023000  0.088018  0.058116 -0.178658  0.069902 0 0 0 0
  27272750  0.089503  0.058744 -0.178494  0.070225 0 0 0 0
  27522500  0.089945  0.057994 -0.177721  0.070854 0 0 0 0
  27772250  0.091117  0.057910 -0.177979  0.071624 0 0 0 0
  28022000  0.092425  0.057819 -0.178257  0.072488 0 0 0 0
  28271750  0.093812  0.058501 -0.177682  0.072743 0 0 0 0
  28521500  0.095008  0.058035 -0.177299  0.073277 0 0 0 0
  28771250  0.096580  0.057316 -0.177583  0.073632 0 0 0 0
  29021000  0.095810  0.058134 -0.176379  0.074304 0 0 0 0
  29270750  0.096251  0.058285 -0.176616  0.075212 0 0 0 0
  29520500  0.098792  0.057363 -0.175945  0.075676 0 0 0 0
  29770250  0.101229  0.057561 -0.176226  0.076510 0 0 0 0
  30020000  0.100940  0.057200 -0.175516  0.076635 0 0 0 0
  30269750  0.102336  0.058098 -0.175752  0.077434 0 0 0 0
  30519500  0.103397  0.057096 -0.174793  0.077837 0 0 0 0
  30769250  0.104851  0.057487 -0.175599  0.079019 0 0 0 0
  31019000  0.104758  0.057497 -0.174484  0.079040 0 0 0 0
  31268750  0.107182  0.056465 -0.175215  0.080135 0 0 0 0
  31518500  0.108033  0.057027 -0.173987  0.080265 0 0 0 0
  31768250  0.108486  0.057488 -0.174156  0.081107 0 0 0 0
  32018000  0.110243  0.056493 -0.174505  0.082024 0 0 0 0
  32267750  0.111087  0.055984 -0.173255  0.082202 0 0 0 0
  32517500  0.111882  0.056201 -0.174140  0.083042 0 0 0 0
  32767250  0.112792  0.056202 -0.173429  0.083585 0 0 0 0
  33017000  0.113489  0.054995 -0.172866  0.084133 0 0 0 0
  33266750  0.114770  0.054211 -0.172410  0.084658 0 0 0 0
  33516500  0.115798  0.054098 -0.171944  0.085604 0 0 0 0
  33766250  0.118037  0.053577 -0.172046  0.086226 0 0 0 0
  34016000  0.118436  0.053976 -0.171931  0.086627 0 0 0 0
  34265750  0.118702  0.053678 -0.171391  0.087417 0 0 0 0
  34515500  0.121517  0.053318 -0.171327  0.088027 0 0 0 0
  34765250  0.121118  0.052958 -0.171014  0.088454 0 0 0 0
  35015000  0.122293  0.053726 -0.171562  0.088856 0 0 0 0
  35264750  0.124313  0.052797 -0.170697  0.089195 0 0 0 0
  35514500  0.125186  0.051674 -0.170020  0.090589 0 0 0 0
  35764250  0.125322  0.051557 -0.170153  0.090946 0 0 0 0
  36014000  0.126885  0.050742 -0.169502  0.091604 0 0 0 0
  36263750  0.127590  0.050466 -0.169176  0.092541 0 0 0 0
  36513500  0.129090  0.050370 -0.169027  0.092419 0 0 0 0
  36763250  0.129344  0.049027 -0.168720  0.092781 0 0 0 0
  37013000  0.131914  0.048938 -0.168598  0.094215 0 0 0 0
  37262750  0.132239  0.049713 -0.168270  0.094685 0 0 0 0
  37512500  0.133232  0.047723 -0.168159  0.095565 0 0 0 0
  37762250  0.134874  0.047885 -0.167976  0.096222 0 0 0 0
  38012000  0.134434  0.047537 -0.167467  0.095937 0 0 0 0
  38261750  0.135331  0.046972 -0.166519  0.096601 0 0 0 0
  38511500  0.138184  0.046061 -0.166619  0.097245 0 0 0 0
  38761250  0.137114  0.045174 -0.165820  0.097602 0 0 0 0
  39011000  0.140754  0.044811 -0.166437  0.099024 0 0 0 0
  39260750  0.141389  0.044334 -0.166185  0.099464 0 0 0 0
  39510500  0.140445  0.043938 -0.165399  0.099636 0 0 0 0
  39760250  0.142865  0.042504 -0.165154  0.100690 0 0 0 0
  40010000  0.143763  0.042327 -0.164900  0.100925 0 0 0 0
  40259750  0.144626  0.043231 -0.165059  0.101734 0 0 0 0
  40509500  0.146579  0.041822 -0.164281  0.102322 0 0 0 0
  40759250  0.147441  0.040866 -0.163955  0.102547 0 0 0 0
  41009000  0.147123  0.039558 -0.163643  0.103607 0 0 0 0
  41258750  0.148670  0.040226 -0.163403  0.104142 0 0 0 0
  41508500  0.149474  0.038230 -0.163536  0.104462 0 0 0 0
  41758250  0.151408  0.036440 -0.162748  0.105296 0 0 0 0
  42008000  0.151359  0.037123 -0.161825  0.105631 0 0 0 0
  42257750  0.153137  0.036380 -0.162017  0.106095 0 0 0 0
  42507500  0.153917  0.036254 -0.161817  0.106875 0 0 0 0
  42757250  0.154655  0.034716 -0.161229  0.107484 0 0 0 0
  43007000  0.155093  0.032436 -0.160590  0.108032 0 0 0 0
  43256750  0.157141  0.032580 -0.160455  0.108569 0 0 0 0
  43506500  0.157896  0.032935 -0.160412  0.108803 0 0 0 0
  43756250  0.158618  0.031306 -0.159437  0.110034 0 0 0 0
  44006000  0.160758  0.030463 -0.159524  0.110076 0 0 0 0
  44255750  0.160903  0.031315 -0.159176  0.110489 0 0 0 0
  44505500  0.161770  0.027667 -0.158684  0.111628 0 0 0 0
  44755250  0.162446  0.027907 -0.158626  0.111643 0 0 0 0
  45005000  0.162828  0.026770 -0.157628  0.112794 0 0 0 0
  45254750  0.164090  0.025564 -0.157480  0.112981 0 0 0 0
  45504500  0.164987  0.024685 -0.157303  0.114162 0 0 0 0
  45754250  0.165867  0.023601 -0.156785  0.114767 0 0 0 0
  46004000  0.168014  0.023510 -0.156628  0.115036 0 0 0 0
  46253750  0.167875  0.020862 -0.155658  0.115071 0 0 0 0
  46503500  0.170321  0.021898 -0.156423  0.116580 0 0 0 0
  46753250  0.169947  0.019837 -0.155079  0.117081 0 0 0 0
  47003000  0.171742  0.018828 -0.154980  0.117157 0 0 0 0
  47252750  0.172188  0.018537 -0.154793  0.118165 0 0 0 0
  47502500  0.173499  0.017572 -0.154461  0.118691 0 0 0 0
  47752250  0.174330  0.015686 -0.153774  0.118838 0 0 0 0
  48002000  0.174298  0.014765 -0.153700  0.119851 0 0 0 0
  48251750  0.174987  0.014907 -0.153077  0.119619 0 0 0 0
  48501500  0.177303  0.012683 -0.152370  0.121144 0 0 0 0
  48751250  0.177470  0.011489 -0.152090  0.121456 0 0 0 0
  49001000  0.177016  0.010171 -0.151954  0.121815 0 0 0 0
  49250750  0.178576  0.008712 -0.151152  0.122115 0 0 0 0
  49500500  0.178837  0.009104 -0.151738  0.122425 0 0 0 0
  49750250  0.181304  0.006524 -0.150658  0.123393 0 0 0 0
  50000000  0.181320  0.006074 -0.150157  0.124079 0 0 0 0
